(1591372012.436348) can0 60A#01C24910
(1591372012.437366) can0 60B#5F5F2BCC80200193
(1591372012.437367) can0 301#8004000000000000
(1591372012.437368) can0 300#0001
(1591372012.437369) can0 60C#5F8CE33A0220E8
(1591372012.438365) can0 60D#5F7D0FA170800A0C
(1591372012.486440) can0 301#8003000000000000
(1591372012.487421) can0 300#0001
(1591372012.506534) can0 60A#01C24B10
(1591372012.507528) can0 60B#5F5F2BCC80200193
(1591372012.507528) can0 60C#5F8CE33A0220E8
(1591372012.507529) can0 60D#5F7D2FA170800A0C
(1591372012.536451) can0 301#8003000000000000
(1591372012.537444) can0 300#0001
(1591372012.581531) can0 60A#01C24D10
(1591372012.582528) can0 60B#5F5F2BCC80200193
(1591372012.582529) can0 60C#5F8CE33A0220E8
(1591372012.582529) can0 60D#5F7D2FA170800A0C
(1591372012.586322) can0 301#8000000000000000
(1591372012.587364) can0 300#0001
(1591372012.636429) can0 301#8001000000000000
(1591372012.637424) can0 300#0001
(1591372012.651212) can0 60A#01C24F10
(1591372012.652278) can0 60B#5F5F2BCC80200193
(1591372012.652279) can0 60C#5F8CE33A0220E8
(1591372012.652280) can0 60D#5F7D0FA170800A0C
(1591372012.686695) can0 301#8000000000000000
(1591372012.687765) can0 300#0001
(1591372012.721196) can0 60A#01C25110
(1591372012.722218) can0 60B#5F5F2BCC80200193
(1591372012.722219) can0 60C#5F8CE33A0220E8
(1591372012.722220) can0 60D#5F7D2FA170800A0C
(1591372012.736419) can0 301#8009000000000000
(1591372012.737430) can0 300#0002
(1591372012.786349) can0 301#8006000000000000
(1591372012.787414) can0 300#0002
(1591372012.796297) can0 60A#01C25310
(1591372012.797288) can0 60B#5F5F2BCC80200193
(1591372012.797289) can0 60C#5F8CE33A0220E8
(1591372012.797290) can0 60D#5F7D2FA170800A0C
(1591372012.836519) can0 301#8005000000000000
(1591372012.837551) can0 300#0001
(1591372012.866292) can0 60A#01C25510
(1591372012.867446) can0 60B#5F5F2BCC80200193
(1591372012.867447) can0 60C#5F8CE33A0220E8
(1591372012.867448) can0 60D#5F7D2FA170800A0C
(1591372012.886584) can0 301#8004000000000000
(1591372012.887600) can0 300#0001
(1591372012.936415) can0 301#8006000000000000
(1591372012.937477) can0 300#0001
(1591372012.941399) can0 60A#01C25710
(1591372012.942253) can0 60B#5F5F2BCC80200193
(1591372012.942254) can0 60C#5F8CE33A0220E8
(1591372012.942255) can0 60D#5F7D2FA170800A0C
(1591372012.986313) can0 301#8000000000000000
(1591372012.987458) can0 300#0001
(1591372013.011441) can0 60A#01C25910
(1591372013.012463) can0 60B#5F5F2BCC80200193
(1591372013.012464) can0 60C#5F8CE33A0220E8
(1591372013.012465) can0 60D#5F7D2FA170800A0C
(1591372013.036547) can0 301#8003000000000000
(1591372013.037555) can0 300#0001
(1591372013.086568) can0 301#8003000000000000
(1591372013.087555) can0 300#0001
(1591372013.087556) can0 60A#01C25B10
(1591372013.087557) can0 60B#5F5F2BCC80200193
(1591372013.087557) can0 60C#5F8CE33A0220E8
(1591372013.088665) can0 60D#5F7D2FA170800A0C
(1591372013.136480) can0 301#8001000000000000
(1591372013.137461) can0 300#0001
(1591372013.156191) can0 60A#01C25D10
(1591372013.157206) can0 60B#5F5F2BCC80200193
(1591372013.157207) can0 60C#5F8CE33A0220E8
(1591372013.157218) can0 60D#5F7D2FA170800A0C
(1591372013.186267) can0 301#8004000000000000
(1591372013.187271) can0 300#0001
(1591372013.226421) can0 60A#01C25F10
(1591372013.227360) can0 60B#5F5F2BCC80200193
(1591372013.227361) can0 60C#5F8CE33A0220E8
(1591372013.227361) can0 60D#5F7D2FA170800A0C
(1591372013.236400) can0 301#8006000000000000
(1591372013.237420) can0 300#0001
(1591372013.286875) can0 301#8002000000000000
(1591372013.287679) can0 300#0001
(1591372013.301338) can0 60A#01C26110
(1591372013.302305) can0 60B#5F5F2BCC80200193
(1591372013.302306) can0 60C#5F8CE33A0220E8
(1591372013.302307) can0 60D#5F7D2FA170800A0C
(1591372013.336822) can0 301#8003000000000000
(1591372013.337769) can0 300#0001
(1591372013.362546) can0 201#401F400010340000
(1591372013.363563) can0 700#041E0100
(1591372013.371456) can0 60A#01C26310
(1591372013.372453) can0 60B#5F5F2BCC80200193
(1591372013.372454) can0 60C#5F8CE33A0220E8
(1591372013.372454) can0 60D#5F7D2FA170800A0C
(1591372013.386698) can0 301#7FFF000000000000
(1591372013.387589) can0 300#0001
(1591372013.436552) can0 301#7FFD000000000000
(1591372013.437566) can0 300#0001
(1591372013.446396) can0 60A#01C26510
(1591372013.447392) can0 60B#5F5F2BCC80200193
(1591372013.447393) can0 60C#5F8CE33A0220E8
(1591372013.448455) can0 60D#5F7D2FA170800A0C
(1591372013.486462) can0 301#8004000000000000
(1591372013.487554) can0 300#0001
(1591372013.516264) can0 60A#01C26710
(1591372013.517245) can0 60B#5F5F2BCC80200193
(1591372013.517245) can0 60C#5F8CE53A0220E8
(1591372013.518252) can0 60D#5F7D0FA170800A0C
(1591372013.536463) can0 301#8007000000000000
(1591372013.537456) can0 300#0000
(1591372013.586399) can0 301#8006000000000000
(1591372013.587462) can0 300#0000
(1591372013.587463) can0 60A#01C26910
(1591372013.587464) can0 60B#5F5F2BCC80200193
(1591372013.587465) can0 60C#5F8CE53A0220E8
(1591372013.588453) can0 60D#5F7D0FA170800A0C
(1591372013.636634) can0 301#8002000000000000
(1591372013.637613) can0 300#0000
(1591372013.661361) can0 60A#02C26B10
(1591372013.662336) can0 60B#0E584BC680202186
(1591372013.662337) can0 60B#5F5F2BCC80200193
(1591372013.662338) can0 60C#0EAD717D0220C8
(1591372013.663396) can0 60C#5F8CE53A0220E8
(1591372013.663397) can0 60D#0E77EFA170800A0C
(1591372013.663398) can0 60D#5F7D2FA170800A0C
(1591372013.686548) can0 301#8003000000000000
(1591372013.687610) can0 300#0000
(1591372013.731280) can0 60A#02C26D10
(1591372013.732317) can0 60B#0E584BC5801FE187
(1591372013.732317) can0 60B#5F5F2BCC80200193
(1591372013.732319) can0 60C#0EAD6F7C8220C8
(1591372013.733429) can0 60C#5F8CE33A0220E8
(1591372013.733430) can0 60D#0E782FA170800A0C
(1591372013.733431) can0 60D#5F7D2FA170800A0C
(1591372013.736388) can0 301#8003000000000000
(1591372013.737408) can0 300#0000
(1591372013.786260) can0 301#7FFF000000000000
(1591372013.787296) can0 300#0000
(1591372013.801263) can0 60A#02C26F10
(1591372013.802276) can0 60B#0E584BC780204187
(1591372013.802278) can0 60B#5F5F2BCC80200193
(1591372013.803389) can0 60C#0EA52D6C0220C8
(1591372013.803390) can0 60C#5F8CE33A0220E8
(1591372013.803391) can0 60D#0E79EFA170800A0C
(1591372013.803401) can0 60D#5F7D2FA170800A0C
(1591372013.836589) can0 301#8005000000000000
(1591372013.837586) can0 300#0000
(1591372013.877504) can0 60A#02C27110
(1591372013.878519) can0 60B#0E584BC780206186
(1591372013.878520) can0 60B#5F5F2BCC80200193
(1591372013.878521) can0 60C#0EA56D6C0220C8
(1591372013.878522) can0 60C#5F8CE53A0220E8
(1591372013.879520) can0 60D#0E7A6FA170800A0C
(1591372013.879521) can0 60D#5F7D0FA170800A0C
(1591372013.886679) can0 301#8002000000000000
(1591372013.887584) can0 300#0000
(1591372013.936537) can0 301#8005000000000000
(1591372013.937426) can0 300#0000
(1591372013.947335) can0 60A#02C27310
(1591372013.948314) can0 60B#0E584BC780204186
(1591372013.948315) can0 60B#5F5F2BCC80200194
(1591372013.948316) can0 60C#0E9D296B8220E8
(1591372013.948317) can0 60C#5F8CE53A0220E8
(1591372013.949340) can0 60D#0E78AFA170800A0C
(1591372013.949342) can0 60D#5F7CEFA170800A0C
(1591372013.986478) can0 301#8005000000000000
(1591372013.987480) can0 300#0000
(1591372014.017250) can0 60A#02C27510
(1591372014.018268) can0 60B#0E5853C880204188
(1591372014.018269) can0 60B#5F5F2BCC80200193
(1591372014.018269) can0 60C#0E9D276B8220E8
(1591372014.018270) can0 60C#5F8CE53A0220E8
(1591372014.019401) can0 60D#0E754FA170800A0C
(1591372014.019401) can0 60D#5F7D0FA170800A0C
(1591372014.036457) can0 301#800A000000000000
(1591372014.037473) can0 300#0000
(1591372014.086419) can0 301#8004000000000000
(1591372014.087511) can0 300#0000
(1591372014.092363) can0 60A#02C27710
(1591372014.093362) can0 60B#0E5853CB8020C188
(1591372014.093363) can0 60B#5F5F2BCC80200193
(1591372014.093363) can0 60C#0E9CE55B0220E8
(1591372014.093364) can0 60C#5F8CE33A0220E8
(1591372014.094315) can0 60D#0E71EFA170800A0C
(1591372014.094316) can0 60D#5F7D0FA170800A0C
(1591372014.136698) can0 301#800A000000000000
(1591372014.137693) can0 300#0000
(1591372014.162379) can0 60A#02C27910
(1591372014.163382) can0 60B#0E585BCC8020E18A
(1591372014.163383) can0 60B#5F5F2BCC80200193
(1591372014.163384) can0 60C#0E94E55B0220E8
(1591372014.163385) can0 60C#5F8CE33A0220E8
(1591372014.164431) can0 60D#0E746FA170800A0C
(1591372014.164432) can0 60D#5F7D0FA170800A0C
(1591372014.186733) can0 301#7FFE000000000000
(1591372014.187721) can0 300#0000
(1591372014.236433) can0 301#8002000000000000
(1591372014.237423) can0 300#0000
(1591372014.237423) can0 60A#02C27B10
(1591372014.237425) can0 60B#0E585BCC8020C18B
(1591372014.237425) can0 60B#5F5F2BCC80200193
(1591372014.238444) can0 60C#0E94E55A8220E8
(1591372014.238445) can0 60C#5F8CE33A0220E8
(1591372014.238446) can0 60D#0E768FA170800A0C
(1591372014.238447) can0 60D#5F7D0FA170800A0C
(1591372014.286581) can0 301#8002000000000000
(1591372014.287603) can0 300#0000
(1591372014.307317) can0 60A#02C27D10
(1591372014.308310) can0 60B#0E585BCD8020C18B
(1591372014.308311) can0 60B#5F5F2BCC80200193
(1591372014.308312) can0 60C#0E94E35A8220E8
(1591372014.308312) can0 60C#5F8CE53A0220E8
(1591372014.309340) can0 60D#0E776FA170800A0C
(1591372014.309340) can0 60D#5F7D2FA170800A0C
(1591372014.336824) can0 301#7FFE000000000000
(1591372014.337852) can0 300#0000
(1591372014.362554) can0 201#401F400010340000
(1591372014.363600) can0 700#041E0100
(1591372014.377473) can0 60A#02C27F10
(1591372014.378496) can0 60B#0E585BCD8020A18B
(1591372014.378497) can0 60B#5F5F2BCC80200193
(1591372014.378498) can0 60C#0E94E34A8220E8
(1591372014.378499) can0 60C#5F8CE33A0220E8
(1591372014.379481) can0 60D#0E794FA170800A0C
(1591372014.379482) can0 60D#5F7D2FA170800A0C
(1591372014.386493) can0 301#8001000000000000
(1591372014.387486) can0 300#0000
(1591372014.436690) can0 301#8003000000000000
(1591372014.437665) can0 300#0000
(1591372014.452426) can0 60A#02C28110
(1591372014.453437) can0 60B#0E585BCD8020C18A
(1591372014.453438) can0 60B#5F5F2BCC80200193
(1591372014.453439) can0 60C#0E94E34A8220E8
(1591372014.453440) can0 60C#5F8CE33A0220E8
(1591372014.454464) can0 60D#0E7A0FA170800A0C
(1591372014.454465) can0 60D#5F7D2FA170800A0C
(1591372014.486479) can0 301#8005000000000000
(1591372014.487538) can0 300#0000
(1591372014.522478) can0 60A#02C28310
(1591372014.523483) can0 60B#0E585BCE8020C189
(1591372014.523484) can0 60B#5F5F2BCC80200193
(1591372014.523484) can0 60C#0E94E54A8220E8
(1591372014.523485) can0 60C#5F8CE33A0220E8
(1591372014.524524) can0 60D#0E7A6FA170800A0C
(1591372014.524525) can0 60D#5F7D4FA170800A0C
(1591372014.536487) can0 301#8003000000000000
(1591372014.537480) can0 300#0000
(1591372014.586353) can0 301#8007000000000000
(1591372014.587355) can0 300#0000
(1591372014.597335) can0 60A#03C28510
(1591372014.598339) can0 60B#095414098020018B
(1591372014.598339) can0 60B#0E585BCD8020A18C
(1591372014.598340) can0 60B#5F5F2BCC80200193
(1591372014.598340) can0 60C#098CA53A0220E8
(1591372014.599379) can0 60C#0E8CE54A0220E8
(1591372014.599380) can0 60C#5F8CE33A0220E8
(1591372014.599380) can0 60D#097D8FA170800A0C
(1591372014.599381) can0 60D#0E7B2FA170800A0C
(1591372014.599381) can0 60D#5F7D2FA170800A0C
(1591372014.636642) can0 301#8001000000000000
(1591372014.637644) can0 300#0000
(1591372014.667568) can0 60A#03C28710
(1591372014.668355) can0 60B#095414098020018A
(1591372014.668356) can0 60B#0E585BCD8020618B
(1591372014.668357) can0 60B#5F5F2BCC80200193
(1591372014.668358) can0 60C#098CA53A0220E8
(1591372014.669384) can0 60C#0E8CE34A0220E8
(1591372014.669385) can0 60C#5F8CE53A0220E8
(1591372014.669385) can0 60D#097D4FA170800A0C
(1591372014.669386) can0 60D#0E7B8FA170800A0C
(1591372014.670371) can0 60D#5F7D2FA170800A0C
(1591372014.686328) can0 301#8003000000000000
(1591372014.687373) can0 300#0000
(1591372014.736393) can0 301#8002000000000000
(1591372014.737261) can0 300#0000
(1591372014.737263) can0 60A#03C28910
(1591372014.737264) can0 60B#0954140A8020218A
(1591372014.737265) can0 60B#0E585BCD8020618A
(1591372014.738264) can0 60B#5F5F2BCC80200193
(1591372014.738265) can0 60C#098CA53A0220E8
(1591372014.738265) can0 60C#0E8CE34A0220E8
(1591372014.738266) can0 60C#5F8CE53A0220E8
(1591372014.739334) can0 60D#097D0FA170800A0C
(1591372014.739335) can0 60D#0E7BCFA170800A0C
(1591372014.739336) can0 60D#5F7D4FA170800A0C
(1591372014.786634) can0 301#8005000000000000
(1591372014.787628) can0 300#0000
(1591372014.812400) can0 60A#03C28B10
(1591372014.813419) can0 60B#0954140A8020218A
(1591372014.813420) can0 60B#0E585BCD80204188
(1591372014.813432) can0 60B#5F5F2BCC80200192
(1591372014.813433) can0 60C#098CA33A0220E8
(1591372014.814389) can0 60C#0E8CE54A0220C8
(1591372014.814390) can0 60C#5F8CE53A0220E8
(1591372014.814391) can0 60D#097CEFA170800A0C
(1591372014.814391) can0 60D#0E7C0FA170800A0C
(1591372014.815444) can0 60D#5F7D2FA170800A0C
(1591372014.836579) can0 301#8007000000000000
(1591372014.837610) can0 300#0000
(1591372014.882699) can0 60A#03C28D10
(1591372014.883749) can0 60B#0954140A8020218A
(1591372014.883749) can0 60B#0E585BCD8020418A
(1591372014.883750) can0 60B#5F5F2BCC80200192
(1591372014.883750) can0 60C#098CA33A0220E8
(1591372014.884721) can0 60C#0E8CE54A0220E8
(1591372014.884722) can0 60C#5F8CE53A0220E8
(1591372014.884722) can0 60D#097CCFA170800A0C
(1591372014.884723) can0 60D#0E7C6FA170800A0C
(1591372014.885758) can0 60D#5F7CEFA170800A0C
(1591372014.886805) can0 301#800A000000000000
(1591372014.886806) can0 300#0000
(1591372014.936700) can0 301#8006000000000000
(1591372014.937702) can0 300#0000
(1591372014.957449) can0 60A#03C28F10
(1591372014.958459) can0 60B#0954140A8020218B
(1591372014.958460) can0 60B#0E585BCD80204188
(1591372014.958461) can0 60B#5F5F2BCC80200193
(1591372014.958461) can0 60C#098CA33A0220E8
(1591372014.959503) can0 60C#0E8CE54A0220E8
(1591372014.959504) can0 60C#5F8CE53A0220E8
(1591372014.959505) can0 60D#097CEFA170800A0C
(1591372014.959506) can0 60D#0E7CCFA170800A0C
(1591372014.960499) can0 60D#5F7C6FA170800A0C
(1591372014.986382) can0 301#8006000000000000
(1591372014.987504) can0 300#0000
(1591372015.027589) can0 60A#03C29110
(1591372015.028606) can0 60B#0954140B8020418B
(1591372015.028608) can0 60B#0E5863CD80204189
(1591372015.028609) can0 60B#5F5F2BCC80200193
(1591372015.028609) can0 60C#098CA33A0220E8
(1591372015.029607) can0 60C#0E8CE54A0220E8
(1591372015.029608) can0 60C#5F8CE33A0220E8
(1591372015.029610) can0 60D#097D0FA170800A0C
(1591372015.029611) can0 60D#0E7CEFA170800A0C
(1591372015.030626) can0 60D#5F7C2FA170800A0C
(1591372015.036470) can0 301#7FFF000000000000
(1591372015.037510) can0 300#0000
(1591372015.086538) can0 301#7FFC000000000000
(1591372015.087480) can0 300#0000
(1591372015.097366) can0 60A#03C29310
(1591372015.098350) can0 60B#0954140A8020218B
(1591372015.098352) can0 60B#0E5863CD80204188
(1591372015.098353) can0 60B#5F5F2BCC80200193
(1591372015.098354) can0 60C#098CA33A0220E8
(1591372015.099452) can0 60C#0E8CE54A0220E8
(1591372015.099453) can0 60C#5F8CE33A0220E8
(1591372015.099454) can0 60D#097D0FA170800A0C
(1591372015.099455) can0 60D#0E7D0FA170800A0C
(1591372015.100469) can0 60D#5F7C2FA170800A0C
(1591372015.136768) can0 301#8001000000000000
(1591372015.137783) can0 300#0000
(1591372015.172494) can0 60A#03C29510
(1591372015.173401) can0 60B#095414098020018A
(1591372015.173402) can0 60B#0E5863CC80202189
(1591372015.173403) can0 60B#5F5F2BCC80200193
(1591372015.173404) can0 60C#098CA53A0220E8
(1591372015.174492) can0 60C#0E8CE33A0220E8
(1591372015.174493) can0 60C#5F8CE33A0220E8
(1591372015.174494) can0 60D#097D0FA170800A0C
(1591372015.174495) can0 60D#0E7CAFA170800A0C
(1591372015.175443) can0 60D#5F7C4FA170800A0C
(1591372015.186398) can0 301#8007000000000000
(1591372015.187421) can0 300#0000
(1591372015.236345) can0 301#800A000000000000
(1591372015.237359) can0 300#0000
(1591372015.242270) can0 60A#03C29710
(1591372015.243336) can0 60B#0954140980200186
(1591372015.243337) can0 60B#0E5863CD80202189
(1591372015.243338) can0 60B#5F5F2BCC80200193
(1591372015.243340) can0 60C#098CA53A0220E8
(1591372015.244310) can0 60C#0E8CE33A0220E8
(1591372015.244311) can0 60C#5F8CE33A0220E8
(1591372015.244312) can0 60D#097D2FA170800A0C
(1591372015.244314) can0 60D#0E7C8FA170800A0C
(1591372015.245413) can0 60D#5F7C4FA170800A0C
(1591372015.286357) can0 301#8006000000000000
(1591372015.287455) can0 300#0000
(1591372015.317207) can0 60A#03C29910
(1591372015.318259) can0 60B#0954140A80200187
(1591372015.318260) can0 60B#0E5863CD80202189
(1591372015.318261) can0 60B#5F5F2BCC80200192
(1591372015.318262) can0 60C#098CA33A0220E8
(1591372015.319382) can0 60C#0E8CA33A0220E8
(1591372015.319383) can0 60C#5F8CE33A0220E8
(1591372015.319384) can0 60D#097D0FA170800A0C
(1591372015.319385) can0 60D#0E7C8FA170800A0C
(1591372015.320287) can0 60D#5F7C6FA170800A0C
(1591372015.336612) can0 301#8004000000000000
(1591372015.337558) can0 300#0000
(1591372015.362575) can0 201#401F400010340000
(1591372015.363590) can0 700#041E0100
(1591372015.386869) can0 301#8000000000000000
(1591372015.387776) can0 300#0000
(1591372015.387778) can0 60A#03C29B10
(1591372015.387778) can0 60B#0954140B80202187
(1591372015.387779) can0 60B#0E5863CD80202188
(1591372015.388786) can0 60B#5F5F2BCC80200193
(1591372015.388788) can0 60C#098CA33A0220E8
(1591372015.388788) can0 60C#0E8CA33A0220E8
(1591372015.388789) can0 60C#5F8CE33A0220E8
(1591372015.388790) can0 60D#097D0FA170800A0C
(1591372015.389799) can0 60D#0E7C8FA170800A0C
(1591372015.389800) can0 60D#5F7CAFA170800A0C
(1591372015.436608) can0 301#7FFD000000000000
(1591372015.437624) can0 300#0000
(1591372015.462493) can0 60A#03C29D10
(1591372015.463506) can0 60B#0954140B80204187
(1591372015.463507) can0 60B#0E5863CD80202189
(1591372015.463507) can0 60B#5F5F2BCC80200193
(1591372015.463508) can0 60C#098CA33A0220E8
(1591372015.464530) can0 60C#0E8CA33A0220E8
(1591372015.464530) can0 60C#5F8CE33A0220E8
(1591372015.464531) can0 60D#097D2FA170800A0C
(1591372015.464531) can0 60D#0E7C6FA170800A0C
(1591372015.465526) can0 60D#5F7CCFA170800A0C
(1591372015.486488) can0 301#800A000000000000
(1591372015.487554) can0 300#0000
(1591372015.532607) can0 60A#03C29F10
(1591372015.533534) can0 60B#0954140C80204187
(1591372015.533535) can0 60B#0E5863CD8020218A
(1591372015.533536) can0 60B#5F5F2BCC80200193
(1591372015.533537) can0 60C#098CA33A0220E8
(1591372015.534486) can0 60C#0E8CA33A0220E8
(1591372015.534487) can0 60C#5F8CA33A0220E8
(1591372015.534488) can0 60D#097D4FA170800A0C
(1591372015.534489) can0 60D#0E7C6FA170800A0C
(1591372015.535476) can0 60D#5F7CEFA170800A0C
(1591372015.536554) can0 301#8007000000000000
(1591372015.537577) can0 300#0000
(1591372015.586506) can0 301#8002000000000000
(1591372015.587488) can0 300#0000
(1591372015.602345) can0 60A#03C2A110
(1591372015.603364) can0 60B#0954140C80204189
(1591372015.603366) can0 60B#0E5863CC80202189
(1591372015.603367) can0 60B#5F5F2BCC80200193
(1591372015.603367) can0 60C#098CA33A0220E8
(1591372015.604384) can0 60C#0E8CA33A0220E8
(1591372015.604386) can0 60C#5F8CA33A0220E8
(1591372015.604387) can0 60D#097D4FA170800A0C
(1591372015.604388) can0 60D#0E7C6FA170800A0C
(1591372015.604390) can0 60D#5F7D0FA170800A0C
(1591372015.636621) can0 301#8003000000000000
(1591372015.637647) can0 300#0000
(1591372015.677407) can0 60A#03C2A310
(1591372015.678468) can0 60B#0954140D80204188
(1591372015.678469) can0 60B#0E5863CC80200189
(1591372015.678469) can0 60B#5F5F2BCC80200193
(1591372015.678470) can0 60C#098CA33A0220E8
(1591372015.679460) can0 60C#0E8CA33A0220E8
(1591372015.679461) can0 60C#5F8CA33A0220E8
(1591372015.679462) can0 60D#097D4FA170800A0C
(1591372015.679463) can0 60D#0E7C8FA170800A0C
(1591372015.680493) can0 60D#5F7D0FA170800A0C
(1591372015.686678) can0 301#8002000000000000
(1591372015.687588) can0 300#0000
(1591372015.736481) can0 301#8001000000000000
(1591372015.737509) can0 300#0000
(1591372015.747438) can0 60A#03C2A510
(1591372015.748316) can0 60B#0954140D80204188
(1591372015.748317) can0 60B#0E5863CC80200189
(1591372015.748317) can0 60B#5F5F2BCC80200193
(1591372015.748318) can0 60C#098CA53A0220CC
(1591372015.749332) can0 60C#0E8CA33A0220E8
(1591372015.749333) can0 60C#5F8CA33A0220E8
(1591372015.749334) can0 60D#097D4FA170800A0C
(1591372015.749335) can0 60D#0E7C8FA170800A0C
(1591372015.750278) can0 60D#5F7D2FA170800A0C
(1591372015.786483) can0 301#8008000000000000
(1591372015.787521) can0 300#0000
(1591372015.822469) can0 60A#03C2A710
(1591372015.823545) can0 60B#0954140D80204188
(1591372015.823546) can0 60B#0E5863CC80200189
(1591372015.823547) can0 60B#5F5F2BCC80200193
(1591372015.824495) can0 60C#098CA53A8220CC
(1591372015.824497) can0 60C#0E8CA33A0220E8
(1591372015.824498) can0 60C#5F8CA33A0220E8
(1591372015.824499) can0 60D#097D4FA170800A0C
(1591372015.824499) can0 60D#0E7CAFA170800A0C
(1591372015.825515) can0 60D#5F7D4FA170800A0C
(1591372015.836413) can0 301#8004000000000000
(1591372015.837426) can0 300#0000
(1591372015.886625) can0 301#8007000000000000
(1591372015.887509) can0 300#0000
(1591372015.892482) can0 60A#03C2A910
(1591372015.893580) can0 60B#0954140D80204187
(1591372015.893581) can0 60B#0E5863CC8020018A
(1591372015.893581) can0 60B#5F5F2BCC80200193
(1591372015.893583) can0 60C#098CA53A0220E8
(1591372015.894535) can0 60C#0E8CA33A0220E8
(1591372015.894536) can0 60C#5F8CA33A0220E8
(1591372015.894536) can0 60D#097D0FA170800A0C
(1591372015.894537) can0 60D#0E7CEFA170800A0C
(1591372015.895549) can0 60D#5F7D4FA170800A0C
(1591372015.936600) can0 301#8000000000000000
(1591372015.937591) can0 300#0000
(1591372015.962435) can0 60A#03C2AB10
(1591372015.963433) can0 60B#0954140D80204188
(1591372015.963434) can0 60B#0E5863CC80200188
(1591372015.963435) can0 60B#5F5F2BCC80200193
(1591372015.963436) can0 60C#098CA53A0220E8
(1591372015.964454) can0 60C#0E8CA33A0220E8
(1591372015.964455) can0 60C#5F8CA33A0220E8
(1591372015.964456) can0 60D#097D0FA170800A0C
(1591372015.964457) can0 60D#0E7CEFA170800A0C
(1591372015.965469) can0 60D#5F7D4FA170800A0C
(1591372015.986469) can0 301#7FFE000000000000
(1591372015.987486) can0 300#0000
(1591372016.036830) can0 301#8005000000000000
(1591372016.037828) can0 300#0000
(1591372016.037840) can0 60A#03C2AD10
(1591372016.037841) can0 60B#0954140C80202189
(1591372016.038846) can0 60B#0E5863CC80200188
(1591372016.038847) can0 60B#5F5F2BCC80200193
(1591372016.038848) can0 60C#098CA33A0220E8
(1591372016.038849) can0 60C#0E8CA33A0220E8
(1591372016.038849) can0 60C#5F8CA33A0220E8
(1591372016.039871) can0 60D#097CEFA170800A0C
(1591372016.039872) can0 60D#0E7D2FA170800A0C
(1591372016.039873) can0 60D#5F7D2FA170800A0C
(1591372016.086751) can0 301#8000000000000000
(1591372016.087678) can0 300#0000
(1591372016.107472) can0 60A#04C2AF10
(1591372016.108596) can0 60B#2B53CBDD801FA184
(1591372016.108597) can0 60B#0954140B8020018A
(1591372016.108598) can0 60B#0E5863CC80200188
(1591372016.108599) can0 60B#5F5F2BCC80200193
(1591372016.109586) can0 60C#2B9CE58C8220A8
(1591372016.109587) can0 60C#098CA53A0220E8
(1591372016.109588) can0 60C#0E8CA33A0220E8
(1591372016.109589) can0 60C#5F8CA33A0220E8
(1591372016.110666) can0 60D#2B7C2FA170800A0C
(1591372016.110666) can0 60D#097CCFA170800A0C
(1591372016.110667) can0 60D#0E7D6FA170800A0C
(1591372016.110668) can0 60D#5F7D2FA170800A0C
(1591372016.136561) can0 301#800B000000000000
(1591372016.137534) can0 300#0000
(1591372016.182732) can0 60A#04C2B110
(1591372016.183739) can0 60B#2B53CBE080214183
(1591372016.183740) can0 60B#0954140B8020018C
(1591372016.183742) can0 60B#0E5863CC80200189
(1591372016.184854) can0 60B#5F5F2BCC80200193
(1591372016.184854) can0 60C#2B9CE77C0220C8
(1591372016.184855) can0 60C#098CA53A0220E8
(1591372016.184856) can0 60C#0E8CA33A0220E8
(1591372016.184857) can0 60C#5F8CA33A0220E8
(1591372016.185769) can0 60D#2B7D0FA170800A0C
(1591372016.185769) can0 60D#097CCFA170800A0C
(1591372016.185770) can0 60D#0E7D4FA170800A0C
(1591372016.185771) can0 60D#5F7D2FA170800A0C
(1591372016.186743) can0 301#7FFE000000000000
(1591372016.186744) can0 300#0000
(1591372016.236428) can0 301#8000000000000000
(1591372016.237469) can0 300#0000
(1591372016.252331) can0 60A#03C2B310
(1591372016.253436) can0 60B#0954140C8020018D
(1591372016.253438) can0 60B#0E5863CC8020018A
(1591372016.253439) can0 60B#5F5F2BCC80200193
(1591372016.253439) can0 60C#098CA33A0220E8
(1591372016.254334) can0 60C#0E8CA33A0220E8
(1591372016.254336) can0 60C#5F8CA33A0220E8
(1591372016.254337) can0 60D#097CCFA170800A0C
(1591372016.254337) can0 60D#0E7D4FA170800A0C
(1591372016.255338) can0 60D#5F7D2FA170800A0C
(1591372016.286392) can0 301#8002000000000000
(1591372016.287438) can0 300#0000
(1591372016.322292) can0 60A#03C2B510
(1591372016.323451) can0 60B#0954140B8020018E
(1591372016.323452) can0 60B#0E5863CB801FE18A
(1591372016.324465) can0 60B#5F5F2BCC80200193
(1591372016.324466) can0 60C#098CA33A0220E8
(1591372016.324466) can0 60C#0E8CA33A0220E8
(1591372016.324467) can0 60C#5F8CA33A0220E8
(1591372016.325478) can0 60D#097CCFA170800A0C
(1591372016.325479) can0 60D#0E7D6FA170800A0C
(1591372016.325479) can0 60D#5F7D4FA170800A0C
(1591372016.336477) can0 301#8001000000000000
(1591372016.337471) can0 300#0000
(1591372016.362523) can0 201#401F400010340000
(1591372016.363530) can0 700#041E0100
(1591372016.386949) can0 301#8004000000000000
(1591372016.387888) can0 300#0000
(1591372016.397400) can0 60A#03C2B710
(1591372016.398349) can0 60B#0954140B8020018E
(1591372016.398350) can0 60B#0E585BCA801FE18C
(1591372016.398351) can0 60B#5F5F2BCC80200193
(1591372016.398351) can0 60C#098CA33A0220E8
(1591372016.399364) can0 60C#0E8CA33A0220E8
(1591372016.399365) can0 60C#5F8CA33A0220E8
(1591372016.399365) can0 60D#097CAFA170800A0C
(1591372016.399366) can0 60D#0E7D8FA170800A0C
(1591372016.400389) can0 60D#5F7D4FA170800A0C
(1591372016.436621) can0 301#8006000000000000
(1591372016.437676) can0 300#0000
(1591372016.467319) can0 60A#03C2B910
(1591372016.468342) can0 60B#0954140B8020018E
(1591372016.468343) can0 60B#0E585BCA801FE18B
(1591372016.468345) can0 60B#5F5F2BCC80200193
(1591372016.468346) can0 60C#098CA33A0220E8
(1591372016.469349) can0 60C#0E8CA33A0220E8
(1591372016.469350) can0 60C#5F8CA33A0220E8
(1591372016.469351) can0 60D#097C8FA170800A0C
(1591372016.469352) can0 60D#0E7DAFA170800A0C
(1591372016.470395) can0 60D#5F7D2FA170800A0C
(1591372016.486416) can0 301#8004000000000000
(1591372016.487448) can0 300#0000
(1591372016.536554) can0 301#8003000000000000
(1591372016.537562) can0 300#0000
(1591372016.542364) can0 60A#03C2BB10
(1591372016.543502) can0 60B#0954140A801FE18E
(1591372016.543503) can0 60B#0E5863CA801FE189
(1591372016.543504) can0 60B#5F5F2BCC80200193
(1591372016.543505) can0 60C#098CA33A0220E8
(1591372016.544389) can0 60C#0E8CA33A0220E8
(1591372016.544390) can0 60C#5F84A33A0220E8
(1591372016.544390) can0 60D#097C8FA170800A0C
(1591372016.544392) can0 60D#0E7DCFA170800A0C
(1591372016.545391) can0 60D#5F7D2FA170800A0C
(1591372016.586597) can0 301#8005000000000000
(1591372016.587571) can0 300#0000
(1591372016.612412) can0 60A#03C2BD10
(1591372016.613386) can0 60B#0954140B8020018E
(1591372016.613387) can0 60B#0E5863CB80200188
(1591372016.613388) can0 60B#5F5F2BCC80200193
(1591372016.614462) can0 60C#098CA53A0220E8
(1591372016.614463) can0 60C#0E8CA33A0220E8
(1591372016.614464) can0 60C#5F84A33A0220E8
(1591372016.614465) can0 60D#097C8FA170800A0C
(1591372016.615474) can0 60D#0E7DAFA170800A0C
(1591372016.615475) can0 60D#5F7D2FA170800A0C
(1591372016.636518) can0 301#8008000000000000
(1591372016.637504) can0 300#0000
(1591372016.686707) can0 301#8006000000000000
(1591372016.687680) can0 300#0000
(1591372016.687681) can0 60A#03C2BF10
(1591372016.687682) can0 60B#0954140B8020018E
(1591372016.688855) can0 60B#0E5863CC80200188
(1591372016.688856) can0 60B#5F5F2BCC80200193
(1591372016.688857) can0 60C#098CA53A8220CC
(1591372016.688860) can0 60C#0E8CA33A0220E8
(1591372016.689756) can0 60C#5F84A33A0220E8
(1591372016.689757) can0 60D#097C8FA170800A0C
(1591372016.689757) can0 60D#0E7D8FA170800A0C
(1591372016.689758) can0 60D#5F7D2FA170800A0C
(1591372016.736756) can0 301#8004000000000000
(1591372016.737598) can0 300#0000
(1591372016.757553) can0 60A#03C2C110
(1591372016.758567) can0 60B#0954140B80200188
(1591372016.758567) can0 60B#0E5863CC80202189
(1591372016.759558) can0 60B#5F5F2BCD80200193
(1591372016.759559) can0 60C#098CA53A8220C8
(1591372016.759559) can0 60C#0E8CA33A0220E8
(1591372016.759560) can0 60C#5F84A33A0220E8
(1591372016.759561) can0 60D#097CCFA170800A0C
(1591372016.760542) can0 60D#0E7D0FA170800A0C
(1591372016.760543) can0 60D#5F7D2FA170800A0C
(1591372016.786414) can0 301#8004000000000000
(1591372016.787421) can0 300#0000
(1591372016.827610) can0 60A#03C2C310
(1591372016.828648) can0 60B#09541C0A80200186
(1591372016.828650) can0 60B#0E5863CC8020018B
(1591372016.829647) can0 60B#5F5F2BCD80200192
(1591372016.829648) can0 60C#098CA53A0220E8
(1591372016.829649) can0 60C#0E8CA33A0220E8
(1591372016.829649) can0 60C#5F84A33A0220E8
(1591372016.829650) can0 60D#097CEFA170800A0C
(1591372016.830658) can0 60D#0E7CAFA170800A0C
(1591372016.830659) can0 60D#5F7D4FA170800A0C
(1591372016.836628) can0 301#8003000000000000
(1591372016.837647) can0 300#0000
(1591372016.886495) can0 301#8006000000000000
(1591372016.887512) can0 300#0000
(1591372016.902843) can0 60A#03C2C510
(1591372016.903752) can0 60B#09541C0C80202186
(1591372016.903753) can0 60B#0E5863CC8020018C
(1591372016.903754) can0 60B#5F5F2BCD80200193
(1591372016.904846) can0 60C#098CA53A0220E8
(1591372016.904847) can0 60C#0E8CA33A0220E8
(1591372016.904847) can0 60C#5F84A33A0220E8
(1591372016.904848) can0 60D#097C6FA170800A0C
(1591372016.905772) can0 60D#0E7C8FA170800A0C
(1591372016.905773) can0 60D#5F7D4FA170800A0C
(1591372016.936649) can0 301#8003000000000000
(1591372016.937607) can0 300#0000
(1591372016.972564) can0 60A#03C2C710
(1591372016.973464) can0 60B#09541C0C80202185
(1591372016.973465) can0 60B#0E5863CC8020218C
(1591372016.973466) can0 60B#5F5F2BCC80200193
(1591372016.973466) can0 60C#098CA53A0220E8
(1591372016.974439) can0 60C#0E8CA33A0220E8
(1591372016.974440) can0 60C#5F84A33A0220E8
(1591372016.974440) can0 60D#097C2FA170800A0C
(1591372016.974441) can0 60D#0E7C8FA170800A0C
(1591372016.975479) can0 60D#5F7D2FA170800A0C
(1591372016.986389) can0 301#8005000000000000
(1591372016.987410) can0 300#0000
(1591372017.036746) can0 301#8005000000000000
(1591372017.037476) can0 300#0000
(1591372017.042278) can0 60A#03C2C910
(1591372017.043322) can0 60B#09541C0C80202186
(1591372017.043323) can0 60B#0E5863CC8020218B
(1591372017.044331) can0 60B#5F5F2BCC80200193
(1591372017.044332) can0 60C#098CA33A0220E8
(1591372017.044333) can0 60C#0E8CA33A0220E8
(1591372017.044334) can0 60C#5F84A33A0220E8
(1591372017.044335) can0 60D#097C0FA170800A0C
(1591372017.045449) can0 60D#0E7C6FA170800A0C
(1591372017.045450) can0 60D#5F7D4FA170800A0C
(1591372017.086466) can0 301#8004000000000000
(1591372017.087475) can0 300#0000
(1591372017.117513) can0 60A#03C2CB10
(1591372017.118445) can0 60B#09541C0C80202184
(1591372017.118446) can0 60B#0E5863CC8020218B
(1591372017.118447) can0 60B#5F5F2BCC80200193
(1591372017.119476) can0 60C#098CA33A0220C8
(1591372017.119477) can0 60C#0E8CA33A0220E8
(1591372017.119478) can0 60C#5F84A33A0220E8
(1591372017.119478) can0 60D#097C0FA170800A0C
(1591372017.120504) can0 60D#0E7C2FA170800A0C
(1591372017.120505) can0 60D#5F7D2FA170800A0C
(1591372017.136606) can0 301#7FFF000000000000
(1591372017.137584) can0 300#0000
(1591372017.186476) can0 301#8004000000000000
(1591372017.187479) can0 300#0000
(1591372017.187479) can0 60A#03C2CD10
(1591372017.188597) can0 60B#09541C0C80202183
(1591372017.188598) can0 60B#0E5863CC80202189
(1591372017.188599) can0 60B#5F5F2BCC80200193
(1591372017.189517) can0 60C#098CA53A0220C8
(1591372017.189528) can0 60C#0E8CA33A0220E8
(1591372017.189529) can0 60C#5F84A33A0220E8
(1591372017.189529) can0 60D#097BEFA170800A0C
(1591372017.190444) can0 60D#0E7C2FA170800A0C
(1591372017.190444) can0 60D#5F7D2FA170800A0C
(1591372017.236400) can0 301#8002000000000000
(1591372017.237468) can0 300#0000
(1591372017.262679) can0 60A#03C2CF10
(1591372017.263585) can0 60B#09541C0C80200183
(1591372017.263586) can0 60B#0E5863CC80200189
(1591372017.264545) can0 60B#5F5F2BCC80200193
(1591372017.264546) can0 60C#098CA53A0220E8
(1591372017.264547) can0 60C#0E8CA33A0220E8
(1591372017.264547) can0 60C#5F84A33A0220E8
(1591372017.264548) can0 60D#097C0FA170800A0C
(1591372017.265564) can0 60D#0E7C4FA170800A0C
(1591372017.265565) can0 60D#5F7D2FA170800A0C
(1591372017.286372) can0 301#8004000000000000
(1591372017.287405) can0 300#0000
(1591372017.332772) can0 60A#03C2D110
(1591372017.333820) can0 60B#09541C0D80202184
(1591372017.333821) can0 60B#0E5863CC80200188
(1591372017.334841) can0 60B#5F5F2BCC80200193
(1591372017.334842) can0 60C#098CA33A0220E8
(1591372017.334842) can0 60C#0E8CA53A0220E8
(1591372017.334843) can0 60C#5F84A33A0220E8
(1591372017.334844) can0 60D#097BEFA170800A0C
(1591372017.335858) can0 60D#0E7C8FA170800A0C
(1591372017.335859) can0 60D#5F7D2FA170800A0C
(1591372017.336879) can0 301#8001000000000000
(1591372017.336880) can0 300#0000
(1591372017.363549) can0 201#401F400010340000
(1591372017.364562) can0 700#041E0100
(1591372017.386712) can0 301#8002000000000000
(1591372017.387630) can0 300#0000
(1591372017.402677) can0 60A#03C2D310
(1591372017.403633) can0 60B#09541C0D80202182
(1591372017.403634) can0 60B#0E5863CC8020218A
(1591372017.403634) can0 60B#5F5F2BCC80200193
(1591372017.404716) can0 60C#098CA53A0220E8
(1591372017.404716) can0 60C#0E8CA33A0220E8
(1591372017.404716) can0 60C#5F84A33A0220E8
(1591372017.404717) can0 60D#097BAFA170800A0C
(1591372017.405642) can0 60D#0E7CCFA170800A0C
(1591372017.405643) can0 60D#5F7D2FA170800A0C
(1591372017.436451) can0 301#8002000000000000
(1591372017.437461) can0 300#0000
(1591372017.478609) can0 60A#03C2D510
(1591372017.479606) can0 60B#0954240C80202182
(1591372017.479607) can0 60B#0E5863CC80200189
(1591372017.479608) can0 60B#5F5F23CC80200193
(1591372017.479608) can0 60C#098CA53A0220E8
(1591372017.480685) can0 60C#0E8CA33A0220E8
(1591372017.480685) can0 60C#5F84A33A0220E8
(1591372017.480686) can0 60D#097BAFA170800A0C
(1591372017.480686) can0 60D#0E7D2FA170800A0C
(1591372017.481646) can0 60D#5F7D2FA170800A0C
(1591372017.486624) can0 301#8002000000000000
(1591372017.487498) can0 300#0000
(1591372017.536459) can0 301#8000000000000000
(1591372017.537367) can0 300#0000
(1591372017.548405) can0 60A#02C2D710
(1591372017.549456) can0 60B#0E5863CD80202187
(1591372017.549457) can0 60B#5F5F23CC80200193
(1591372017.549458) can0 60C#0E8CA33A0220E8
(1591372017.549458) can0 60C#5F84A33A0220E8
(1591372017.550351) can0 60D#0E7D0FA170800A0C
(1591372017.550352) can0 60D#5F7D4FA170800A0C
(1591372017.586570) can0 301#8006000000000000
(1591372017.587579) can0 300#0000
(1591372017.623598) can0 60A#03C2D910
(1591372017.624533) can0 60B#0553FC04801EA185
(1591372017.624534) can0 60B#22584BC680208185
(1591372017.624546) can0 60B#5F5F23CC80200193
(1591372017.624547) can0 60C#05A52B7D0220C8
(1591372017.625612) can0 60C#22AD717D0220C8
(1591372017.625612) can0 60C#5F84A33A0220E8
(1591372017.625613) can0 60D#057CCFA170800A0C
(1591372017.625614) can0 60D#227B2FA170800A0C
(1591372017.626545) can0 60D#5F7D4FA170800A0C
(1591372017.636670) can0 301#7FFE000000000000
(1591372017.637679) can0 300#0000
(1591372017.686325) can0 301#8002000000000000
(1591372017.687347) can0 300#0000
(1591372017.693388) can0 60A#03C2DB10
(1591372017.694367) can0 60B#0554040780200186
(1591372017.694368) can0 60B#225853C78020A188
(1591372017.694369) can0 60B#5F5F23CC80200192
(1591372017.694370) can0 60C#059D297C0220E8
(1591372017.695388) can0 60C#22A56D7C8220E8
(1591372017.695389) can0 60C#5F84A33A0220E8
(1591372017.695389) can0 60D#057AEFA170800A0C
(1591372017.695391) can0 60D#227ACFA170800A0C
(1591372017.696386) can0 60D#5F7D2FA170800A0C
(1591372017.736487) can0 301#8003000000000000
(1591372017.737391) can0 300#0000
(1591372017.768440) can0 60A#03C2DD10
(1591372017.769451) can0 60B#0553FC0A8020C188
(1591372017.769452) can0 60B#225853C78020A188
(1591372017.769453) can0 60B#5F5F23CC80200192
(1591372017.769454) can0 60C#059CE57B8220E8
(1591372017.770408) can0 60C#22A56F7C8220CC
(1591372017.770409) can0 60C#5F84A33A0220E8
(1591372017.770409) can0 60D#057C4FA170800A0C
(1591372017.770410) can0 60D#227ACFA170800A0C
(1591372017.771477) can0 60D#5F7D2FA170800A0C
(1591372017.786431) can0 301#8004000000000000
(1591372017.787432) can0 300#0000
(1591372017.836945) can0 301#8007000000000000
(1591372017.837889) can0 300#0000
(1591372017.839046) can0 60A#03C2DF10
(1591372017.839950) can0 60B#0553FC0B80212189
(1591372017.839951) can0 60B#22585BC98020E186
(1591372017.839952) can0 60B#5F5F23CC80200192
(1591372017.839952) can0 60C#059CE56B8220E8
(1591372017.839953) can0 60C#22A56D7C0220C8
(1591372017.840939) can0 60C#5F84A33A0220E8
(1591372017.840942) can0 60D#057D2FA170800A0C
(1591372017.840943) can0 60D#22734FA170800A0C
(1591372017.840945) can0 60D#5F7D2FA170800A0C
(1591372017.886804) can0 301#8002000000000000
(1591372017.887807) can0 300#0000
(1591372017.908393) can0 60A#03C2E110
(1591372017.909406) can0 60B#0554040C8021018B
(1591372017.909407) can0 60B#22585BCB80212188
(1591372017.909407) can0 60B#5F5F23CC80200193
(1591372017.909408) can0 60C#0594E56B0220E8
(1591372017.910495) can0 60C#229D296B8220E8
(1591372017.910497) can0 60C#5F84A33A0220E8
(1591372017.910498) can0 60D#057CAFA170800A0C
(1591372017.910499) can0 60D#2271AFA170800A0C
(1591372017.910500) can0 60D#5F7D0FA170800A0C
(1591372017.936489) can0 301#8003000000000000
(1591372017.937472) can0 300#0000
(1591372017.983569) can0 60A#03C2E310
(1591372017.984668) can0 60B#0554040B8020C18C
(1591372017.984668) can0 60B#22585BCC80212186
(1591372017.984670) can0 60B#5F5F23CC80200193
(1591372017.984670) can0 60C#0594E56A8220E8
(1591372017.985617) can0 60C#229D296B8220C8
(1591372017.985618) can0 60C#5F84A33A0220E8
(1591372017.985619) can0 60D#057CEFA170800A0C
(1591372017.985620) can0 60D#2273EFA170800A0C
(1591372017.986667) can0 60D#5F7D0FA170800A0C
(1591372017.986668) can0 301#8002000000000000
(1591372017.986668) can0 300#0000
(1591372018.036475) can0 301#8003000000000000
(1591372018.037589) can0 300#0000
(1591372018.058441) can0 60A#03C2E510
(1591372018.059459) can0 60B#0554040A8020218A
(1591372018.059460) can0 60B#22586BCB80210187
(1591372018.059461) can0 60B#5F5F23CC80200193
(1591372018.059461) can0 60C#0594E35A8220E8
(1591372018.060460) can0 60C#229D276B8220E8
(1591372018.060461) can0 60C#5F84A33A0220E8
(1591372018.060462) can0 60D#057CCFA170800A0C
(1591372018.060463) can0 60D#22700FA170800A0C
(1591372018.061435) can0 60D#5F7D0FA170800A0C
(1591372018.086561) can0 301#8001000000000000
(1591372018.087492) can0 300#0000
(1591372018.128470) can0 60A#03C2E710
(1591372018.129493) can0 60B#05540409801FE18A
(1591372018.129493) can0 60B#225873CD80212188
(1591372018.129494) can0 60B#5F5F23CC80200193
(1591372018.129495) can0 60C#0594E55A8220E8
(1591372018.130533) can0 60C#229D256B0220E8
(1591372018.130535) can0 60C#5F84A33A0220E8
(1591372018.130536) can0 60D#057CCFA170800A0C
(1591372018.130536) can0 60D#226C0FA170800A0C
(1591372018.131513) can0 60D#5F7D0FA170800A0C
(1591372018.136504) can0 301#8006000000000000
(1591372018.137498) can0 300#0000
(1591372018.186784) can0 301#8007000000000000
(1591372018.187681) can0 300#0000
(1591372018.198417) can0 60A#03C2E910
(1591372018.199397) can0 60B#05540409801FE18A
(1591372018.199398) can0 60B#225873CD80210187
(1591372018.199400) can0 60B#5F5F23CC80200193
(1591372018.199402) can0 60C#0594E35A8220E8
(1591372018.200419) can0 60C#229CE55B0220E8
(1591372018.200420) can0 60C#5F84A33A0220E8
(1591372018.200421) can0 60D#057CCFA170800A0C
(1591372018.200423) can0 60D#22718FA170800A0C
(1591372018.201459) can0 60D#5F7D2FA170800A0C
(1591372018.236292) can0 301#8001000000000000
(1591372018.237281) can0 300#0000
(1591372018.273445) can0 60A#03C2EB10
(1591372018.274360) can0 60B#05540C09801FE18C
(1591372018.274361) can0 60B#22586BCB80208189
(1591372018.274362) can0 60B#5F5F23CC80200193
(1591372018.274362) can0 60C#058CE35A0220E8
(1591372018.275508) can0 60C#2294E55A8220E8
(1591372018.275508) can0 60C#5F84A33A0220E8
(1591372018.275509) can0 60D#057CCFA170800A0C
(1591372018.275510) can0 60D#2274EFA170800A0C
(1591372018.275511) can0 60D#5F7D0FA170800A0C
(1591372018.286273) can0 301#8006000000000000
(1591372018.287574) can0 300#0000
(1591372018.336449) can0 301#8003000000000000
(1591372018.337465) can0 300#0000
(1591372018.343355) can0 60A#03C2ED10
(1591372018.344341) can0 60B#05540C0A8020418C
(1591372018.344341) can0 60B#22586BCC80208188
(1591372018.344342) can0 60B#5F5F23CC80200193
(1591372018.344342) can0 60C#058CA34A0220E8
(1591372018.345361) can0 60C#2294E55A8220E8
(1591372018.345362) can0 60C#5F84A33A0220E8
(1591372018.345362) can0 60D#057CAFA170800A0C
(1591372018.345362) can0 60D#2278AFA170800A0C
(1591372018.346382) can0 60D#5F7D0FA170800A0C
(1591372018.363463) can0 201#401F400010340000
(1591372018.364468) can0 700#041E0100
(1591372018.386625) can0 301#8001000000000000
(1591372018.387771) can0 300#0000
(1591372018.414110) can0 60A#03C2EF10
(1591372018.414993) can0 60B#05540C08801FC189
(1591372018.414994) can0 60B#225863CC80208189
(1591372018.414994) can0 60B#5F5F23CC80200193
(1591372018.414995) can0 60C#058CA34A0220E8
(1591372018.415772) can0 60C#2294E55A8220E8
(1591372018.415773) can0 60C#5F84A33A0220E8
(1591372018.415773) can0 60D#057CAFA170800A0C
(1591372018.415773) can0 60D#227AEFA170800A0C
(1591372018.416802) can0 60D#5F7D0FA170800A0C
(1591372018.436696) can0 301#8002000000000000
(1591372018.437448) can0 300#0000
(1591372018.486622) can0 301#8000000000000000
(1591372018.487604) can0 300#0000
(1591372018.488664) can0 60A#03C2F110
(1591372018.489641) can0 60B#05540C0980200189
(1591372018.489642) can0 60B#225863CB8020618C
(1591372018.489643) can0 60B#5F5F23CC80200193
(1591372018.489644) can0 60C#058CA34A0220E8
(1591372018.490690) can0 60C#2294E55A8220E8
(1591372018.490691) can0 60C#5F84A33A0220E8
(1591372018.490692) can0 60D#057CCFA170800A0C
(1591372018.490694) can0 60D#227BAFA170800A0C
(1591372018.491707) can0 60D#5F7D0FA170800A0C
(1591372018.536581) can0 301#8002000000000000
(1591372018.537575) can0 300#0000
(1591372018.558383) can0 60A#03C2F310
(1591372018.559395) can0 60B#05540C0A80202184
(1591372018.559397) can0 60B#225863CC8020618B
(1591372018.559398) can0 60B#5F5F23CC80200193
(1591372018.559400) can0 60C#058CE54A0220C8
(1591372018.560439) can0 60C#2294E34A0220E8
(1591372018.560440) can0 60C#5F84A33A0220E8
(1591372018.560441) can0 60D#057CCFA170800A0C
(1591372018.560443) can0 60D#227C4FA170800A0C
(1591372018.561421) can0 60D#5F7D0FA170800A0C
(1591372018.586575) can0 301#8006000000000000
(1591372018.587605) can0 300#0000
(1591372018.628373) can0 60A#03C2F510
(1591372018.629389) can0 60B#05540C0B80202184
(1591372018.629390) can0 60B#22586BCC80208189
(1591372018.629391) can0 60B#5F5F23CC80200193
(1591372018.629392) can0 60C#058CE54A0220E8
(1591372018.630414) can0 60C#2294E34A0220E8
(1591372018.630414) can0 60C#5F84A33A0220E8
(1591372018.630415) can0 60D#057CEFA170800A0C
(1591372018.630416) can0 60D#227C4FA170800A0C
(1591372018.630416) can0 60D#5F7D0FA170800A0C
(1591372018.636357) can0 301#7FFF000000000000
(1591372018.637408) can0 300#0000
(1591372018.686871) can0 301#7FFD000000000000
(1591372018.687770) can0 300#0000
(1591372018.703428) can0 60A#03C2F710
(1591372018.704531) can0 60B#05540C0B80204184
(1591372018.704532) can0 60B#22586BCD80208187
(1591372018.704532) can0 60B#5F5F23CC80200193
(1591372018.704533) can0 60C#058CA34A0220E8
(1591372018.705464) can0 60C#228CE34A0220E8
(1591372018.705465) can0 60C#5F84A33A0220E8
(1591372018.705466) can0 60D#057CCFA170800A0C
(1591372018.705467) can0 60D#227CAFA170800A0C
(1591372018.706453) can0 60D#5F7D0FA170800A0C
(1591372018.736446) can0 301#8007000000000000
(1591372018.737462) can0 300#0000
(1591372018.773281) can0 60A#03C2F910
(1591372018.774253) can0 60B#05540C0C80204185
(1591372018.774254) can0 60B#225863CC8020418A
(1591372018.774255) can0 60B#5F5F23CC80200193
(1591372018.774256) can0 60C#058CA34A0220E8
(1591372018.775343) can0 60C#228CE34A0220E8
(1591372018.775344) can0 60C#5F84A33A0220E8
(1591372018.775345) can0 60D#057CAFA170800A0C
(1591372018.775345) can0 60D#227CAFA170800A0C
(1591372018.775346) can0 60D#5F7D0FA170800A0C
(1591372018.786342) can0 301#8006000000000000
(1591372018.787397) can0 300#0000
(1591372018.836495) can0 301#8005000000000000
(1591372018.837500) can0 300#0000
(1591372018.848556) can0 60A#03C2FB10
(1591372018.849503) can0 60B#05540C0C80204184
(1591372018.849504) can0 60B#225863CC80204189
(1591372018.849505) can0 60B#5F5F23CD80200193
(1591372018.849505) can0 60C#058CA33A0220E8
(1591372018.850485) can0 60C#228CE34A0220E8
(1591372018.850485) can0 60C#5F84A33A0220E8
(1591372018.850486) can0 60D#057CAFA170800A0C
(1591372018.850487) can0 60D#227CAFA170800A0C
(1591372018.851458) can0 60D#5F7D0FA170800A0C
(1591372018.886802) can0 301#8003000000000000
(1591372018.887875) can0 300#0000
(1591372018.918750) can0 60A#03C2FD10
(1591372018.919734) can0 60B#05540C0C80204186
(1591372018.919735) can0 60B#225863CD80206189
(1591372018.919735) can0 60B#5F5F23CC80200193
(1591372018.919736) can0 60C#058CA33A0220E8
(1591372018.920888) can0 60C#228CA34A0220E8
(1591372018.920889) can0 60C#5F84A33A0220E8
(1591372018.920890) can0 60D#057CAFA170800A0C
(1591372018.920891) can0 60D#227D2FA170800A0C
(1591372018.921758) can0 60D#5F7D0FA170800A0C
(1591372018.936531) can0 301#7FFF000000000000
(1591372018.937484) can0 300#0000
(1591372018.986863) can0 301#8001000000000000
(1591372018.987840) can0 300#0000
(1591372018.988884) can0 60A#04C2FF10
(1591372018.988885) can0 60B#05540C0D80206187
(1591372018.989886) can0 60B#225863CC80204189
(1591372018.989887) can0 60B#5F5F23CD80200193
(1591372018.989888) can0 60B#15623C4B80204185
(1591372018.989889) can0 60C#058CA33A0220E8
(1591372018.990903) can0 60C#228CE34A0220E8
(1591372018.990904) can0 60C#5F84A33A0220E8
(1591372018.990905) can0 60C#15ADAD8D0220E8
(1591372018.990906) can0 60D#057CAFA170800A0C
(1591372018.990907) can0 60D#227CEFA170800A0C
(1591372018.991915) can0 60D#5F7D2FA170800A0C
(1591372018.991916) can0 60D#157C6FA170800A0C
(1591372019.036556) can0 301#7FFF000000000000
(1591372019.037550) can0 300#0000
(1591372019.063483) can0 60A#04C30110
(1591372019.064519) can0 60B#0554140D80206187
(1591372019.064520) can0 60B#225863CC8020418B
(1591372019.064521) can0 60B#5F5F23CC80200193
(1591372019.064521) can0 60B#15624C4F80208189
(1591372019.065487) can0 60C#058CA33A0220E8
(1591372019.065488) can0 60C#228CE34A0220E8
(1591372019.065489) can0 60C#5F84A33A0220E8
(1591372019.065489) can0 60C#15A56D8C8220E8
(1591372019.065490) can0 60D#057CAFA170800A0C
(1591372019.066503) can0 60D#227D2FA170800A0C
(1591372019.066504) can0 60D#5F7D0FA170800A0C
(1591372019.066505) can0 60D#157AEFA170800A0C
(1591372019.086510) can0 301#8005000000000000
(1591372019.087531) can0 300#0000
(1591372019.133504) can0 60A#04C30310
(1591372019.134521) can0 60B#05540C0D80206189
(1591372019.134522) can0 60B#225863CC8020418B
(1591372019.134523) can0 60B#5F5F23CC80200193
(1591372019.134524) can0 60B#15625C518020C18C
(1591372019.135506) can0 60C#058CA33A0220E8
(1591372019.135507) can0 60C#228CE54A0220CC
(1591372019.135508) can0 60C#5F84A33A0220E8
(1591372019.135508) can0 60C#15A5697C0220E8
(1591372019.135509) can0 60D#057C8FA170800A0C
(1591372019.136534) can0 60D#227D2FA170800A0C
(1591372019.136535) can0 60D#5F7D0FA170800A0C
(1591372019.136535) can0 60D#157ACFA170800A0C
(1591372019.136536) can0 301#8005000000000000
(1591372019.137490) can0 300#0000
(1591372019.186315) can0 301#8001000000000000
(1591372019.187330) can0 300#0000
(1591372019.203337) can0 60A#04C30510
(1591372019.204353) can0 60B#05540C0D8020618B
(1591372019.204353) can0 60B#225863CC80202189
(1591372019.204353) can0 60B#5F5F23CC80200193
(1591372019.204354) can0 60B#15625C548021218E
(1591372019.205350) can0 60C#058CA33A0220E8
(1591372019.205350) can0 60C#228CE54A0220E8
(1591372019.205350) can0 60C#5F84A33A0220E8
(1591372019.205351) can0 60C#15A5277B8220E8
(1591372019.206372) can0 60D#057C8FA170800A0C
(1591372019.206372) can0 60D#227D0FA170800A0C
(1591372019.206372) can0 60D#5F7D0FA170800A0C
(1591372019.206372) can0 60D#157ACFA170800A0C
(1591372019.236306) can0 301#8004000000000000
(1591372019.237323) can0 300#0000
(1591372019.278280) can0 60A#04C30710
(1591372019.279337) can0 60B#05540C0D8020418A
(1591372019.279337) can0 60B#225863CC80202188
(1591372019.279337) can0 60B#5F5F23CD80200192
(1591372019.279338) can0 60B#15625C548021218F
(1591372019.280332) can0 60C#058CA33A0220E8
(1591372019.280333) can0 60C#228CE54A0220E8
(1591372019.280333) can0 60C#5F84A33A0220E8
(1591372019.280333) can0 60C#15A5257B8220E8
(1591372019.280334) can0 60D#057CAFA170800A0C
(1591372019.281319) can0 60D#227D6FA170800A0C
(1591372019.281320) can0 60D#5F7D2FA170800A0C
(1591372019.281320) can0 60D#157BAFA170800A0C
(1591372019.286359) can0 301#8003000000000000
(1591372019.287376) can0 300#0000
(1591372019.336742) can0 301#8006000000000000
(1591372019.337761) can0 300#0000
(1591372019.348641) can0 60A#04C30910
(1591372019.349687) can0 60B#05540C0D80204189
(1591372019.349687) can0 60B#22586BCD80204187
(1591372019.349688) can0 60B#5F5F23CD80200193
(1591372019.350705) can0 60B#156254548020C18C
(1591372019.350706) can0 60C#058CA33A0220E8
(1591372019.350706) can0 60C#228CE54A0220E8
(1591372019.350707) can0 60C#5F84A33A0220E8
(1591372019.350708) can0 60C#159D257B0220E8
(1591372019.351661) can0 60D#057CAFA170800A0C
(1591372019.351662) can0 60D#227D8FA170800A0C
(1591372019.351663) can0 60D#5F7D2FA170800A0C
(1591372019.351664) can0 60D#157C6FA170800A0C
(1591372019.363628) can0 201#401F400010340000
(1591372019.364605) can0 700#041E0100
(1591372019.386749) can0 301#8001000000000000
(1591372019.387743) can0 300#0000
(1591372019.418453) can0 60A#04C30B10
(1591372019.419469) can0 60B#05540C0E80204188
(1591372019.419470) can0 60B#225863CC80202188
(1591372019.419470) can0 60B#5F5F23CD80200192
(1591372019.419472) can0 60B#15624C558020E18D
(1591372019.420492) can0 60C#058CA33A0220E8
(1591372019.420493) can0 60C#228CE33A0220E8
(1591372019.420494) can0 60C#5F84A33A0220E8
(1591372019.420494) can0 60C#159D257B0220E8
(1591372019.420495) can0 60D#057CAFA170800A0C
(1591372019.421508) can0 60D#227D0FA170800A0C
(1591372019.421509) can0 60D#5F7D2FA170800A0C
(1591372019.421510) can0 60D#157D2FA170800A0C
(1591372019.436838) can0 301#8000000000000000
(1591372019.437848) can0 300#0000
(1591372019.486492) can0 301#8004000000000000
(1591372019.487485) can0 300#0000
(1591372019.493513) can0 60A#04C30D10
(1591372019.494548) can0 60B#05540C0D80204188
(1591372019.494549) can0 60B#22586BCC80202189
(1591372019.494549) can0 60B#5F5F23CD80200192
(1591372019.494550) can0 60B#156244568021018D
(1591372019.495541) can0 60C#058CA33A0220E8
(1591372019.495541) can0 60C#228CE33A0220E8
(1591372019.495552) can0 60C#5F84A33A0220E8
(1591372019.495552) can0 60C#159D257A8220E8
(1591372019.496550) can0 60D#057CCFA170800A0C
(1591372019.496550) can0 60D#227D2FA170800A0C
(1591372019.496551) can0 60D#5F7D2FA170800A0C
(1591372019.496552) can0 60D#157D6FA170800A0C
(1591372019.536510) can0 301#8007000000000000
(1591372019.537483) can0 300#0000
(1591372019.563457) can0 60A#04C30F10
(1591372019.564464) can0 60B#0554140D80202189
(1591372019.564466) can0 60B#22586BCD80202189
(1591372019.564466) can0 60B#5F5F23CD80200192
(1591372019.564467) can0 60B#156244578021218A
(1591372019.565432) can0 60C#058CA33A0220E8
(1591372019.565433) can0 60C#228CA33A0220E8
(1591372019.565434) can0 60C#5F84A33A0220E8
(1591372019.565435) can0 60C#159D256A8220E8
(1591372019.565436) can0 60D#057CEFA170800A0C
(1591372019.566448) can0 60D#227CEFA170800A0C
(1591372019.566448) can0 60D#5F7D0FA170800A0C
(1591372019.566449) can0 60D#157DCFA170800A0C
(1591372019.586480) can0 301#8002000000000000
(1591372019.587528) can0 300#0000
(1591372019.636475) can0 301#8007000000000000
(1591372019.637516) can0 300#0000
(1591372019.638514) can0 60A#04C31110
(1591372019.639562) can0 60B#0554140D80202189
(1591372019.639564) can0 60B#22586BCC8020218A
(1591372019.639565) can0 60B#5F5F23CD80200192
(1591372019.639566) can0 60B#1562445880214189
(1591372019.639568) can0 60C#058CA53A0220E8
(1591372019.640580) can0 60C#228CA33A0220E8
(1591372019.640581) can0 60C#5F84A33A0220E8
(1591372019.640582) can0 60C#159D656A8220E8
(1591372019.640583) can0 60D#057CEFA170800A0C
(1591372019.641558) can0 60D#227D0FA170800A0C
(1591372019.641559) can0 60D#5F7D0FA170800A0C
(1591372019.641559) can0 60D#157D8FA170800A0C
(1591372019.686357) can0 301#8006000000000000
(1591372019.687426) can0 300#0000
(1591372019.708283) can0 60A#04C31310
(1591372019.709309) can0 60B#0554140C80202189
(1591372019.709309) can0 60B#22586BCC8020218A
(1591372019.709310) can0 60B#5F5F23CD80200192
(1591372019.710301) can0 60B#15624C578020C18A
(1591372019.710301) can0 60C#058CA53A0220E8
(1591372019.710302) can0 60C#228CA33A0220E8
(1591372019.710302) can0 60C#5F84A33A0220E8
(1591372019.710303) can0 60C#159D256A8220E8
(1591372019.711341) can0 60D#057CCFA170800A0C
(1591372019.711341) can0 60D#227CEFA170800A0C
(1591372019.711342) can0 60D#5F7D0FA170800A0C
(1591372019.711342) can0 60D#157D4FA170800A0C
(1591372019.736473) can0 301#8002000000000000
(1591372019.737476) can0 300#0000
(1591372019.783463) can0 60A#04C31510
(1591372019.784525) can0 60B#0554140C80202187
(1591372019.784526) can0 60B#22586BCC8020218A
(1591372019.784527) can0 60B#5F5F23CC80200193
(1591372019.784528) can0 60B#156254588020E18E
(1591372019.785544) can0 60C#058CA33A0220E8
(1591372019.785545) can0 60C#228CE53A0220CC
(1591372019.785546) can0 60C#5F84A33A0220E8
(1591372019.785546) can0 60C#159D256A8220E8
(1591372019.786429) can0 60D#057CCFA170800A0C
(1591372019.786430) can0 60D#227CEFA170800A0C
(1591372019.786431) can0 60D#5F7D0FA170800A0C
(1591372019.786432) can0 301#8001000000000000
(1591372019.786432) can0 300#0000
(1591372019.787459) can0 60D#157D2FA170800A0C
(1591372019.836705) can0 301#8005000000000000
(1591372019.837679) can0 300#0000
(1591372019.853740) can0 60A#04C31710
(1591372019.854758) can0 60B#0554140C80202187
(1591372019.854759) can0 60B#22586BCD80202188
(1591372019.854759) can0 60B#5F5F23CC80200193
(1591372019.855779) can0 60B#15625C5B80214190
(1591372019.855780) can0 60C#058CA53A0220CC
(1591372019.855780) can0 60C#228CE53A8220C8
(1591372019.855781) can0 60C#5F84A33A0220E8
(1591372019.855781) can0 60C#159D256A0220E8
(1591372019.856781) can0 60D#057CCFA170800A0C
(1591372019.856782) can0 60D#227CEFA170800A0C
(1591372019.856782) can0 60D#5F7D0FA170800A0C
(1591372019.856783) can0 60D#157D2FA170800A0C
(1591372019.886756) can0 301#8003000000000000
(1591372019.887659) can0 300#0000
(1591372019.928889) can0 60A#04C31910
(1591372019.929787) can0 60B#0554140B801FE186
(1591372019.929789) can0 60B#22586BCD80202185
(1591372019.929789) can0 60B#5F5F23CD80200193
(1591372019.929790) can0 60B#15625C5A8021018E
(1591372019.930852) can0 60C#058CA53A0220E8
(1591372019.930853) can0 60C#228CE53A8220C8
(1591372019.930853) can0 60C#5F84A33A0220E8
(1591372019.930854) can0 60C#159D255A0220E8
(1591372019.931815) can0 60D#057CAFA170800A0C
(1591372019.931816) can0 60D#227CEFA170800A0C
(1591372019.931817) can0 60D#5F7D0FA170800A0C
(1591372019.931817) can0 60D#157CEFA170800A0C
(1591372019.936587) can0 301#8001000000000000
(1591372019.937481) can0 300#0000
(1591372019.986522) can0 301#8004000000000000
(1591372019.987534) can0 300#0000
(1591372019.998353) can0 60A#04C31B10
(1591372019.999418) can0 60B#0554140A801FE186
(1591372019.999419) can0 60B#22586BCD80202186
(1591372019.999420) can0 60B#5F5F23CD80200193
(1591372019.999421) can0 60B#15625C588020818C
(1591372020.000440) can0 60C#058CA53A0220E8
(1591372020.000441) can0 60C#228CE53A0220E8
(1591372020.000441) can0 60C#5F84A33A0220E8
(1591372020.000442) can0 60C#159D255A0220E8
(1591372020.001398) can0 60D#057CAFA170800A0C
(1591372020.001399) can0 60D#227D0FA170800A0C
(1591372020.001400) can0 60D#5F7CEFA170800A0C
(1591372020.001401) can0 60D#157C8FA170800A0C
(1591372020.036512) can0 301#8004000000000000
(1591372020.037521) can0 300#0000
(1591372020.068448) can0 60A#04C31D10
(1591372020.069511) can0 60B#05541409801FC186
(1591372020.069512) can0 60B#22586BCD80202186
(1591372020.069513) can0 60B#5F5F23CC80200193
(1591372020.069514) can0 60B#15625C588020818C
(1591372020.070419) can0 60C#058CA53A0220E8
(1591372020.070420) can0 60C#228CE53A8220CC
(1591372020.070421) can0 60C#5F84A33A0220E8
(1591372020.070421) can0 60C#159D255A8220CC
(1591372020.071548) can0 60D#057CEFA170800A0C
(1591372020.071549) can0 60D#227D0FA170800A0C
(1591372020.071550) can0 60D#5F7CEFA170800A0C
(1591372020.071550) can0 60D#157C8FA170800A0C
(1591372020.086422) can0 301#7FFF000000000000
(1591372020.087426) can0 300#0000
(1591372020.136579) can0 301#8005000000000000
(1591372020.137482) can0 300#0000
(1591372020.143351) can0 60A#04C31F10
(1591372020.144288) can0 60B#05540C09801FC186
(1591372020.144289) can0 60B#22586BCD80202184
(1591372020.144289) can0 60B#5F5F23CD80200193
(1591372020.145331) can0 60B#15625C588020818C
(1591372020.145332) can0 60C#058CA33A0220E8
(1591372020.145333) can0 60C#228CE53A8220C8
(1591372020.145333) can0 60C#5F84A33A0220E8
(1591372020.146309) can0 60C#1595255A0220E8
(1591372020.146310) can0 60D#057D0FA170800A0C
(1591372020.146320) can0 60D#227CCFA170800A0C
(1591372020.146321) can0 60D#5F7D0FA170800A0C
(1591372020.146322) can0 60D#157C4FA170800A0C
(1591372020.186453) can0 301#8006000000000000
(1591372020.187443) can0 300#0000
(1591372020.213303) can0 60A#04C32110
(1591372020.214347) can0 60B#05540C07801FA185
(1591372020.214348) can0 60B#22586BCC80200184
(1591372020.215472) can0 60B#5F5F23CD80200193
(1591372020.215474) can0 60B#15625C588020818C
(1591372020.215475) can0 60C#058CA53A0220E8
(1591372020.215475) can0 60C#228CE53A0220E8
(1591372020.215476) can0 60C#5F84A33A0220E8
(1591372020.216407) can0 60C#1595255A8220CC
(1591372020.216408) can0 60D#057D2FA170800A0C
(1591372020.216409) can0 60D#227D2FA170800A0C
(1591372020.216410) can0 60D#5F7D0FA170800A0C
(1591372020.217507) can0 60D#157C4FA170800A0C
(1591372020.236473) can0 301#8006000000000000
(1591372020.237373) can0 300#0000
(1591372020.286416) can0 301#7FFF000000000000
(1591372020.287430) can0 300#0000
(1591372020.288552) can0 60A#04C32310
(1591372020.289460) can0 60B#05540C07801FA186
(1591372020.289461) can0 60B#225863CC80200183
(1591372020.289462) can0 60B#5F5F23CD80200192
(1591372020.289463) can0 60B#15625C588020618D
(1591372020.290479) can0 60C#058CA53A0220E8
(1591372020.290479) can0 60C#228CE33A0220E8
(1591372020.290480) can0 60C#5F84A33A0220E8
(1591372020.290480) can0 60C#1595255A0220E8
(1591372020.291508) can0 60D#057D4FA170800A0C
(1591372020.291509) can0 60D#227DAFA170800A0C
(1591372020.291509) can0 60D#5F7D0FA170800A0C
(1591372020.291510) can0 60D#157CAFA170800A0C
(1591372020.336521) can0 301#8004000000000000
(1591372020.337538) can0 300#0000
(1591372020.358427) can0 60A#04C32510
(1591372020.359411) can0 60B#05540C08801FC187
(1591372020.359412) can0 60B#225863CB80200185
(1591372020.359413) can0 60B#5F5F23CC80200193
(1591372020.360465) can0 60B#15625C588020618B
(1591372020.360466) can0 60C#058CA53A0220E8
(1591372020.360467) can0 60C#228CE33A0220E8
(1591372020.360468) can0 60C#5F84A33A0220E8
(1591372020.361444) can0 60C#1595255A0220E8
(1591372020.361445) can0 60D#057D6FA170800A0C
(1591372020.361445) can0 60D#227DCFA170800A0C
(1591372020.361446) can0 60D#5F7D0FA170800A0C
(1591372020.361447) can0 60D#157CCFA170800A0C
(1591372020.363480) can0 201#401F400010340000
(1591372020.364463) can0 700#041E0100
(1591372020.386467) can0 301#8005000000000000
(1591372020.387529) can0 300#0000
(1591372020.428690) can0 60A#04C32710
(1591372020.429495) can0 60B#05540C08801FC187
(1591372020.429496) can0 60B#225863CB801FE185
(1591372020.429496) can0 60B#5F5F23CC80200193
(1591372020.430558) can0 60B#15625C598020818B
(1591372020.430559) can0 60C#058CA53A0220E8
(1591372020.430559) can0 60C#228CE33A0220E8
(1591372020.430560) can0 60C#5F84A33A0220E8
(1591372020.431575) can0 60C#1595255A0220E8
(1591372020.431576) can0 60D#057D4FA170800A0C
(1591372020.431576) can0 60D#227E2FA170800A0C
(1591372020.431576) can0 60D#5F7D0FA170800A0C
(1591372020.431577) can0 60D#157CAFA170800A0C
(1591372020.436497) can0 301#8001000000000000
(1591372020.437520) can0 300#0000
(1591372020.486534) can0 301#8004000000000000
(1591372020.487520) can0 300#0000
(1591372020.498515) can0 60A#04C32910
(1591372020.499459) can0 60B#05540C07801FC187
(1591372020.499471) can0 60B#225863CC80200184
(1591372020.500540) can0 60B#5F5F23CC80200193
(1591372020.500541) can0 60B#15625C578020418A
(1591372020.500542) can0 60C#058CA33A0220E8
(1591372020.500542) can0 60C#228CA33A0220E8
(1591372020.500543) can0 60C#5F84A33A0220E8
(1591372020.501546) can0 60C#1595254A0220E8
(1591372020.501547) can0 60D#057D6FA170800A0C
(1591372020.501548) can0 60D#227E6FA170800A0C
(1591372020.501548) can0 60D#5F7CEFA170800A0C
(1591372020.502542) can0 60D#157CAFA170800A0C
(1591372020.536574) can0 301#8004000000000000
(1591372020.537593) can0 300#0000
(1591372020.573544) can0 60A#04C32B10
(1591372020.574547) can0 60B#05540C08801FC188
(1591372020.574548) can0 60B#225863CB80200184
(1591372020.574549) can0 60B#5F5F23CC80200193
(1591372020.575520) can0 60B#15625C568020218B
(1591372020.575520) can0 60C#058CA33A0220E8
(1591372020.575521) can0 60C#228CA33A0220E8
(1591372020.575522) can0 60C#5F84A33A0220E8
(1591372020.576518) can0 60C#1595254A0220E8
(1591372020.576521) can0 60D#057D6FA170800A0C
(1591372020.576523) can0 60D#227DCFA170800A0C
(1591372020.576524) can0 60D#5F7CEFA170800A0C
(1591372020.577475) can0 60D#157CCFA170800A0C
(1591372020.586716) can0 301#8003000000000000
(1591372020.587631) can0 300#0000
(1591372020.636573) can0 301#8003000000000000
(1591372020.637567) can0 300#0000
(1591372020.643414) can0 60A#04C32D10
(1591372020.644281) can0 60B#05540C08801FE188
(1591372020.644283) can0 60B#225863CB80200183
(1591372020.645332) can0 60B#5F5F23CC80200193
(1591372020.645333) can0 60B#15625C558020018D
(1591372020.645334) can0 60C#058CA53A0220E8
(1591372020.645334) can0 60C#228CA33A0220E8
(1591372020.645335) can0 60C#5F84A33A0220E8
(1591372020.646309) can0 60C#1595254A0220E8
(1591372020.646310) can0 60D#057D6FA170800A0C
(1591372020.646311) can0 60D#227DCFA170800A0C
(1591372020.646312) can0 60D#5F7D0FA170800A0C
(1591372020.647459) can0 60D#157D0FA170800A0C
(1591372020.686580) can0 301#8003000000000000
(1591372020.687501) can0 300#0000
(1591372020.718377) can0 60A#04C32F10
(1591372020.719550) can0 60B#05540C09801FE188
(1591372020.719552) can0 60B#225863CB801FE183
(1591372020.719552) can0 60B#5F5F23CC80200193
(1591372020.720441) can0 60B#15625C548020018B
(1591372020.720442) can0 60C#058CA53A0220E8
(1591372020.720443) can0 60C#228CA53A0220E8
(1591372020.720444) can0 60C#5F84A33A0220E8
(1591372020.721480) can0 60C#1595254A0220E8
(1591372020.721482) can0 60D#057D4FA170800A0C
(1591372020.721483) can0 60D#227D8FA170800A0C
(1591372020.721483) can0 60D#5F7D0FA170800A0C
(1591372020.721484) can0 60D#157D0FA170800A0C
(1591372020.736416) can0 301#7FFF000000000000
(1591372020.737379) can0 300#0000
(1591372020.786536) can0 301#8004000000000000
(1591372020.787487) can0 300#0000
(1591372020.788531) can0 60A#04C33110
(1591372020.789611) can0 60B#05540C0980200188
(1591372020.789612) can0 60B#225863CB80200180
(1591372020.789613) can0 60B#5F5F23CC80200192
(1591372020.790612) can0 60B#15625C548020018B
(1591372020.790613) can0 60C#058CA53A0220E8
(1591372020.790613) can0 60C#228CA53A0220E8
(1591372020.790615) can0 60C#5F84A33A0220E8
(1591372020.791597) can0 60C#1595254A8220CC
(1591372020.791599) can0 60D#057D4FA170800A0C
(1591372020.791599) can0 60D#227DAFA170800A0C
(1591372020.791611) can0 60D#5F7D0FA170800A0C
(1591372020.792646) can0 60D#157D0FA170800A0C
(1591372020.836729) can0 301#8001000000000000
(1591372020.837715) can0 300#0000
(1591372020.863660) can0 60A#04C33310
(1591372020.864672) can0 60B#05540C08801FE186
(1591372020.864673) can0 60B#225863CB80200183
(1591372020.864674) can0 60B#5F5F23CC80200193
(1591372020.865695) can0 60B#15625C548020018B
(1591372020.865695) can0 60C#058CA33A0220E8
(1591372020.865697) can0 60C#228CA53A0220E8
(1591372020.865698) can0 60C#5F84A33A0220E8
(1591372020.866738) can0 60C#1595254A8220CC
(1591372020.866739) can0 60D#057D2FA170800A0C
(1591372020.866740) can0 60D#227D6FA170800A0C
(1591372020.866741) can0 60D#5F7D0FA170800A0C
(1591372020.866742) can0 60D#157D0FA170800A0C
(1591372020.886609) can0 301#8005000000000000
(1591372020.887659) can0 300#0000
(1591372020.934452) can0 60A#03C33510
(1591372020.935471) can0 60B#05541408801FE185
(1591372020.935472) can0 60B#225863CB80200183
(1591372020.935472) can0 60B#5F5F23CD80200193
(1591372020.935473) can0 60C#058CA33A0220E8
(1591372020.936651) can0 60C#228CE53A0220E8
(1591372020.936652) can0 60C#5F84A33A0220E8
(1591372020.936653) can0 60D#057D0FA170800A0C
(1591372020.936654) can0 60D#227D6FA170800A0C
(1591372020.937532) can0 60D#5F7D0FA170800A0C
(1591372020.937533) can0 301#8007000000000000
(1591372020.937533) can0 300#0000
(1591372020.986620) can0 301#8005000000000000
(1591372020.987617) can0 300#0000
(1591372021.004415) can0 60A#03C33710
(1591372021.005500) can0 60B#05541408801FE183
(1591372021.005501) can0 60B#225863CB80200181
(1591372021.005502) can0 60B#5F5F23CC80200193
(1591372021.005504) can0 60C#058CA53A0220C8
(1591372021.006383) can0 60C#228CE53A0220C8
(1591372021.006384) can0 60C#5F84A33A0220E8
(1591372021.006385) can0 60D#057CEFA170800A0C
(1591372021.006385) can0 60D#227D6FA170800A0C
(1591372021.007454) can0 60D#5F7CEFA170800A0C
(1591372021.036567) can0 301#8005000000000000
(1591372021.037446) can0 300#0000
(1591372021.079334) can0 60A#03C33910
(1591372021.080444) can0 60B#05541406801FC185
(1591372021.080445) can0 60B#225863CC80200182
(1591372021.080446) can0 60B#5F5F23CC80200193
(1591372021.080449) can0 60C#058CA33A0220E8
(1591372021.081441) can0 60C#228CA33A0220E8
(1591372021.081443) can0 60C#5F84A33A0220E8
(1591372021.081444) can0 60D#057C8FA170800A0C
(1591372021.081446) can0 60D#227CAFA170800A0C
(1591372021.081447) can0 60D#5F7D0FA170800A0C
(1591372021.086471) can0 301#7FFF000000000000
(1591372021.087463) can0 300#0000
(1591372021.136578) can0 301#7FFF000000000000
(1591372021.137530) can0 300#0000
(1591372021.149454) can0 60A#03C33B10
(1591372021.150508) can0 60B#05541405801FA186
(1591372021.150509) can0 60B#225863CB80200185
(1591372021.150510) can0 60B#5F5F23CD80200192
(1591372021.150511) can0 60C#058CA33A0220E8
(1591372021.151513) can0 60C#228CA33A0220E8
(1591372021.151515) can0 60C#5F84A33A0220E8
(1591372021.151516) can0 60D#057C8FA170800A0C
(1591372021.151517) can0 60D#227CAFA170800A0C
(1591372021.152511) can0 60D#5F7D0FA170800A0C
(1591372021.186546) can0 301#8003000000000000
(1591372021.187559) can0 300#0000
(1591372021.219450) can0 60A#03C33D10
(1591372021.220524) can0 60B#05541406801FC186
(1591372021.220535) can0 60B#225863CA801FE186
(1591372021.220536) can0 60B#5F5F23CD80200192
(1591372021.220536) can0 60C#058CA33A0220E8
(1591372021.221543) can0 60C#228CA53A0220E8
(1591372021.221544) can0 60C#5F84A33A0220E8
(1591372021.221545) can0 60D#057CCFA170800A0C
(1591372021.221545) can0 60D#227CEFA170800A0C
(1591372021.222437) can0 60D#5F7D0FA170800A0C
(1591372021.236389) can0 301#8005000000000000
(1591372021.237400) can0 300#0000
(1591372021.286564) can0 301#7FFF000000000000
(1591372021.287412) can0 300#0000
(1591372021.294244) can0 60A#03C33F10
(1591372021.295273) can0 60B#05541405801FA186
(1591372021.295274) can0 60B#225863CB801FE188
(1591372021.295275) can0 60B#5F5F23CD80200192
(1591372021.295275) can0 60C#058CA33A0220E8
(1591372021.296288) can0 60C#228CA53A0220E8
(1591372021.296289) can0 60C#5F84A33A0220E8
(1591372021.296290) can0 60D#057CCFA170800A0C
(1591372021.296291) can0 60D#227D0FA170800A0C
(1591372021.296292) can0 60D#5F7D0FA170800A0C
(1591372021.336654) can0 301#8003000000000000
(1591372021.337657) can0 300#0000
(1591372021.364460) can0 60A#03C34110
(1591372021.365479) can0 60B#05540C04801FA186
(1591372021.365480) can0 201#401F400010340000
(1591372021.365481) can0 60B#225863CA801FE186
(1591372021.365482) can0 700#041E0100
(1591372021.366541) can0 60B#5F5F23CC80200192
(1591372021.366542) can0 60C#058CA33A0220E8
(1591372021.366542) can0 60C#228CA33A0220E8
(1591372021.366543) can0 60C#5F84A33A0220E8
(1591372021.366544) can0 60D#057CEFA170800A0C
(1591372021.367556) can0 60D#227CAFA170800A0C
(1591372021.367556) can0 60D#5F7D0FA170800A0C
(1591372021.386838) can0 301#8003000000000000
(1591372021.387702) can0 300#0000
(1591372021.436595) can0 301#8007000000000000
(1591372021.437528) can0 300#0000
(1591372021.439521) can0 60A#03C34310
(1591372021.440585) can0 60B#05540C03801F8186
(1591372021.440586) can0 60B#225863CA801FE187
(1591372021.440587) can0 60B#5F5F23CC80200192
(1591372021.440588) can0 60C#058CA33A0220E8
(1591372021.441614) can0 60C#228CA33A0220E8
(1591372021.441615) can0 60C#5F84A33A0220E8
(1591372021.441616) can0 60D#057D0FA170800A0C
(1591372021.441616) can0 60D#227D0FA170800A0C
(1591372021.442690) can0 60D#5F7D0FA170800A0C
(1591372021.486626) can0 301#7FFD000000000000
(1591372021.487647) can0 300#0000
(1591372021.509564) can0 60A#03C34510
(1591372021.510559) can0 60B#05540C04801FA185
(1591372021.510559) can0 60B#22585BCA801FE187
(1591372021.510560) can0 60B#5F5F23CC80200192
(1591372021.510560) can0 60C#058CA33A0220E8
(1591372021.511583) can0 60C#228CA33A0220E8
(1591372021.511583) can0 60C#5F84A33A0220E8
(1591372021.511584) can0 60D#057D4FA170800A0C
(1591372021.511584) can0 60D#227D8FA170800A0C
(1591372021.512607) can0 60D#5F7D0FA170800A0C
(1591372021.536568) can0 301#8005000000000000
(1591372021.537519) can0 300#0000
(1591372021.579459) can0 60A#03C34710
(1591372021.580523) can0 60B#05540C03801F8184
(1591372021.580523) can0 60B#22585BCA801FE187
(1591372021.580524) can0 60B#5F5F23CC80200192
(1591372021.580524) can0 60C#058CA33A0220E8
(1591372021.581427) can0 60C#228CA33A0220E8
(1591372021.581427) can0 60C#5F84A33A0220E8
(1591372021.581428) can0 60D#057D8FA170800A0C
(1591372021.581428) can0 60D#227DEFA170800A0C
(1591372021.582529) can0 60D#5F7D0FA170800A0C
(1591372021.586556) can0 301#8002000000000000
(1591372021.587575) can0 300#0000
(1591372021.636618) can0 301#8002000000000000
(1591372021.637568) can0 300#0000
(1591372021.654391) can0 60A#03C34910
(1591372021.655443) can0 60B#05540C03801F8185
(1591372021.655444) can0 60B#225863CA801FE189
(1591372021.655445) can0 60B#5F5F23CC80200192
(1591372021.655445) can0 60C#058CA33A0220E8
(1591372021.656525) can0 60C#228CA33A0220E8
(1591372021.656526) can0 60C#5F84A33A0220E8
(1591372021.656526) can0 60D#057DCFA170800A0C
(1591372021.656527) can0 60D#227DEFA170800A0C
(1591372021.657542) can0 60D#5F7D0FA170800A0C
(1591372021.686470) can0 301#8002000000000000
(1591372021.687482) can0 300#0000
(1591372021.724826) can0 60A#03C34B10
(1591372021.725579) can0 60B#05540C02801F8183
(1591372021.725580) can0 60B#225863CA801FE18A
(1591372021.725580) can0 60B#5F5F23CC80200192
(1591372021.725581) can0 60C#058CA53A0220E8
(1591372021.726659) can0 60C#228CA33A0220E8
(1591372021.726660) can0 60C#5F84A33A0220E8
(1591372021.726660) can0 60D#057DCFA170800A0C
(1591372021.726660) can0 60D#227DAFA170800A0C
(1591372021.727593) can0 60D#5F7D0FA170800A0C
(1591372021.736623) can0 301#8002000000000000
(1591372021.737633) can0 300#0000
(1591372021.786670) can0 301#8004000000000000
(1591372021.787596) can0 300#0000
(1591372021.794559) can0 60A#03C34D10
(1591372021.795535) can0 60B#05540C02801F8184
(1591372021.795535) can0 60B#225863CB8020018A
(1591372021.795536) can0 60B#5F5F23CC80200193
(1591372021.795536) can0 60C#058CA53A0220E8
(1591372021.796668) can0 60C#228CA33A0220E8
(1591372021.796669) can0 60C#5F84A33A0220E8
(1591372021.796670) can0 60D#057DCFA170800A0C
(1591372021.796671) can0 60D#227DCFA170800A0C
(1591372021.797595) can0 60D#5F7D0FA170800A0C
(1591372021.836628) can0 301#8000000000000000
(1591372021.837664) can0 300#0000
(1591372021.869631) can0 60A#03C34F10
(1591372021.870697) can0 60B#05540C02801FA184
(1591372021.870698) can0 60B#225863CC8020218A
(1591372021.870699) can0 60B#5F5F23CC80200193
(1591372021.870700) can0 60C#058CA33A0220E8
(1591372021.871572) can0 60C#228CA33A0220E8
(1591372021.871573) can0 60C#5F84A33A0220E8
(1591372021.871574) can0 60D#057DAFA170800A0C
(1591372021.871575) can0 60D#227D8FA170800A0C
(1591372021.872632) can0 60D#5F7D0FA170800A0C
(1591372021.886873) can0 301#8001000000000000
(1591372021.887869) can0 300#0000
(1591372021.936727) can0 301#8004000000000000
(1591372021.937665) can0 300#0000
(1591372021.939557) can0 60A#03C35110
(1591372021.940577) can0 60B#05540C02801FA184
(1591372021.940578) can0 60B#225863CC80202187
(1591372021.940578) can0 60B#5F5F23CC80200193
(1591372021.940579) can0 60C#058CA33A0220E8
(1591372021.941619) can0 60C#228CA33A0220E8
(1591372021.941620) can0 60C#5F84A33A0220E8
(1591372021.941621) can0 60D#057D8FA170800A0C
(1591372021.941622) can0 60D#227D8FA170800A0C
(1591372021.942715) can0 60D#5F7D0FA170800A0C
(1591372021.986724) can0 301#8004000000000000
(1591372021.987715) can0 300#0000
(1591372022.014394) can0 60A#03C35310
(1591372022.015435) can0 60B#05540C02801FA185
(1591372022.015436) can0 60B#225863CC80202188
(1591372022.015436) can0 60B#5F5F23CC80200193
(1591372022.015447) can0 60C#058CA33A0220E8
(1591372022.016434) can0 60C#228CA33A0220E8
(1591372022.016435) can0 60C#5F84A33A0220E8
(1591372022.016436) can0 60D#057D8FA170800A0C
(1591372022.016436) can0 60D#227D2FA170800A0C
(1591372022.017453) can0 60D#5F7D0FA170800A0C
(1591372022.036510) can0 301#8003000000000000
(1591372022.037509) can0 300#0000
(1591372022.084396) can0 60A#03C35510
(1591372022.085390) can0 60B#05540C02801FA186
(1591372022.085391) can0 60B#225863CD80202188
(1591372022.085391) can0 60B#5F5F23CC80200193
(1591372022.085392) can0 60C#058CA33A0220E8
(1591372022.086391) can0 60C#228CA33A0220E8
(1591372022.086393) can0 60C#5F84A33A0220E8
(1591372022.086393) can0 60D#057D8FA170800A0C
(1591372022.086393) can0 60D#227D0FA170800A0C
(1591372022.087390) can0 301#8002000000000000
(1591372022.087390) can0 300#0000
(1591372022.087391) can0 60D#5F7D0FA170800A0C
(1591372022.136675) can0 301#8007000000000000
(1591372022.137567) can0 300#0000
(1591372022.159396) can0 60A#03C35710
(1591372022.160396) can0 60B#05540C02801FC186
(1591372022.160396) can0 60B#225863CD80202188
(1591372022.160397) can0 60B#5F5F23CC80200193
(1591372022.160398) can0 60C#058CA33A0220E8
(1591372022.161421) can0 60C#228CA53A0220C8
(1591372022.161422) can0 60C#5F84A33A0220E8
(1591372022.161424) can0 60D#057D6FA170800A0C
(1591372022.161424) can0 60D#227CEFA170800A0C
(1591372022.162441) can0 60D#5F7CEFA170800A0C
(1591372022.186437) can0 301#8004000000000000
(1591372022.187564) can0 300#0000
(1591372022.229609) can0 60A#03C35910
(1591372022.230725) can0 60B#05540C02801FC186
(1591372022.230726) can0 60B#225863CD80202188
(1591372022.230726) can0 60B#5F5F23CC80200192
(1591372022.230727) can0 60C#058CA53A0220CC
(1591372022.231670) can0 60C#228CA53A0220E8
(1591372022.231672) can0 60C#5F84A33A0220E8
(1591372022.231672) can0 60D#057D6FA170800A0C
(1591372022.231673) can0 60D#227CEFA170800A0C
(1591372022.232628) can0 60D#5F7D0FA170800A0C
(1591372022.236492) can0 301#8001000000000000
(1591372022.237546) can0 300#0000
(1591372022.286468) can0 301#8005000000000000
(1591372022.287487) can0 300#0000
(1591372022.299267) can0 60A#03C35B10
(1591372022.300312) can0 60B#05540C02801FC184
(1591372022.300313) can0 60B#225863CC80202189
(1591372022.300314) can0 60B#5F5F23CC80200192
(1591372022.300314) can0 60C#058CA53A0220C8
(1591372022.301423) can0 60C#228CA53A0220E8
(1591372022.301424) can0 60C#5F84A33A0220E8
(1591372022.301426) can0 60D#057D6FA170800A0C
(1591372022.301426) can0 60D#227C8FA170800A0C
(1591372022.302332) can0 60D#5F7CEFA170800A0C
(1591372022.336700) can0 301#8006000000000000
(1591372022.337689) can0 300#0000
(1591372022.364670) can0 201#401F400010340000
(1591372022.365662) can0 700#041E0100
(1591372022.374598) can0 60A#03C35D10
(1591372022.375612) can0 60B#05540C02801FC183
(1591372022.375613) can0 60B#225863CD8020218A
(1591372022.375613) can0 60B#5F5F23CC80200192
(1591372022.375613) can0 60C#058CA53A0220E8
(1591372022.376642) can0 60C#228CA33A0220E8
(1591372022.376643) can0 60C#5F84A33A0220E8
(1591372022.376643) can0 60D#057D2FA170800A0C
(1591372022.376643) can0 60D#227C4FA170800A0C
(1591372022.377646) can0 60D#5F7CEFA170800A0C
(1591372022.386865) can0 301#7FFE000000000000
(1591372022.387870) can0 300#0000
(1591372022.436928) can0 301#8003000000000000
(1591372022.437977) can0 300#0000
(1591372022.444394) can0 60A#03C35F10
(1591372022.445415) can0 60B#05540C01801FA183
(1591372022.445415) can0 60B#225863CD8020218B
(1591372022.445415) can0 60B#5F5F23CC80200192
(1591372022.445416) can0 60C#058CA53A0220E8
(1591372022.446414) can0 60C#228CA33A0220E8
(1591372022.446414) can0 60C#5F84A33A0220E8
(1591372022.446415) can0 60D#057CEFA170800A0C
(1591372022.446415) can0 60D#227C4FA170800A0C
(1591372022.447432) can0 60D#5F7CEFA170800A0C
(1591372022.486584) can0 301#8007000000000000
(1591372022.487602) can0 300#0000
(1591372022.519502) can0 60A#03C36110
(1591372022.520517) can0 60B#05540C02801FC185
(1591372022.520518) can0 60B#225863CD8020218B
(1591372022.520518) can0 60B#5F5F23CC80200192
(1591372022.520519) can0 60C#058CA33A0220E8
(1591372022.521540) can0 60C#228CA33A0220E8
(1591372022.521541) can0 60C#5F84A33A0220E8
(1591372022.521541) can0 60D#057CEFA170800A0C
(1591372022.521542) can0 60D#227C2FA170800A0C
(1591372022.521542) can0 60D#5F7CEFA170800A0C
(1591372022.536606) can0 301#8004000000000000
(1591372022.537623) can0 300#0000
(1591372022.586609) can0 301#8003000000000000
(1591372022.587601) can0 300#0000
(1591372022.589480) can0 60A#03C36310
(1591372022.590533) can0 60B#05540C02801FE186
(1591372022.590533) can0 60B#225863CC8020218D
(1591372022.590533) can0 60B#5F5F23CC80200192
(1591372022.590534) can0 60C#058CA33A0220E8
(1591372022.591579) can0 60C#228CA33A0220E8
(1591372022.591580) can0 60C#5F84A33A0220E8
(1591372022.591580) can0 60D#057D0FA170800A0C
(1591372022.591580) can0 60D#227C4FA170800A0C
(1591372022.592549) can0 60D#5F7CEFA170800A0C
(1591372022.636683) can0 301#8003000000000000
(1591372022.637705) can0 300#0000
(1591372022.659418) can0 60A#03C36510
(1591372022.660435) can0 60B#05540C03801FE186
(1591372022.660436) can0 60B#225863CC8020018D
(1591372022.660436) can0 60B#5F5F23CC80200192
(1591372022.660436) can0 60C#058CA33A0220E8
(1591372022.661473) can0 60C#228CA33A0220E8
(1591372022.661473) can0 60C#5F84A33A0220E8
(1591372022.661473) can0 60D#057D4FA170800A0C
(1591372022.661474) can0 60D#227C6FA170800A0C
(1591372022.662494) can0 60D#5F7CEFA170800A0C
(1591372022.686538) can0 301#8004000000000000
(1591372022.687551) can0 300#0000
(1591372022.734303) can0 60A#03C36710
(1591372022.735320) can0 60B#05540C0380200186
(1591372022.735320) can0 60B#225863CC8020018C
(1591372022.735320) can0 60B#5F5F23CC80200192
(1591372022.735321) can0 60C#058CA33A0220E8
(1591372022.736293) can0 60C#228CA33A0220E8
(1591372022.736294) can0 60C#5F84A33A0220E8
(1591372022.736294) can0 60D#057D6FA170800A0C
(1591372022.736294) can0 301#7FFF000000000000
(1591372022.736295) can0 300#0000
(1591372022.737316) can0 60D#227C6FA170800A0C
(1591372022.737316) can0 60D#5F7D0FA170800A0C
(1591372022.786591) can0 301#8005000000000000
(1591372022.787607) can0 300#0000
(1591372022.804285) can0 60A#03C36910
(1591372022.805263) can0 60B#05540C0580202186
(1591372022.805263) can0 60B#225863CB801FE18C
(1591372022.805264) can0 60B#5F5F23CC80200192
(1591372022.806250) can0 60C#058CA33A0220E8
(1591372022.806250) can0 60C#228CA33A0220E8
(1591372022.806253) can0 60C#5F84A33A0220E8
(1591372022.806253) can0 60D#057D8FA170800A0C
(1591372022.806253) can0 60D#227C8FA170800A0C
(1591372022.807250) can0 60D#5F7D0FA170800A0C
(1591372022.836625) can0 301#8003000000000000
(1591372022.837636) can0 300#0000
(1591372022.879586) can0 60A#03C36B10
(1591372022.880603) can0 60B#05540C0680204186
(1591372022.880604) can0 60B#225863CB801FE188
(1591372022.880604) can0 60B#5F5F23CC80200192
(1591372022.880604) can0 60C#0584A33A0220E8
(1591372022.881623) can0 60C#228CA53A0220C8
(1591372022.881623) can0 60C#5F84A33A0220E8
(1591372022.881623) can0 60D#057DAFA170800A0C
(1591372022.881623) can0 60D#227CAFA170800A0C
(1591372022.882644) can0 60D#5F7D0FA170800A0C
(1591372022.886666) can0 301#8005000000000000
(1591372022.887686) can0 300#0000
(1591372022.936500) can0 301#8005000000000000
(1591372022.937537) can0 300#0000
(1591372022.949530) can0 60A#04C36D10
(1591372022.950547) can0 60B#05540C0880208185
(1591372022.950547) can0 60B#225863CB801FE18A
(1591372022.950547) can0 60B#35587B69801FE18D
(1591372022.950547) can0 60B#5F5F23CC80200192
(1591372022.951567) can0 60C#0584A33A0220E8
(1591372022.951568) can0 60C#228CA33A0220E8
(1591372022.951568) can0 60C#35A5278C8220A8
(1591372022.951568) can0 60C#5F84A33A0220E8
(1591372022.952588) can0 60D#057DAFA170800A0C
(1591372022.952589) can0 60D#227CAFA170800A0C
(1591372022.952589) can0 60D#357BCFA170800A0C
(1591372022.952589) can0 60D#5F7D0FA170800A0C
(1591372022.986877) can0 301#8003000000000000
(1591372022.987604) can0 300#0000
(1591372023.019596) can0 60A#04C36F10
(1591372023.020508) can0 60B#05540C0880208185
(1591372023.020509) can0 60B#225863CB801FE18C
(1591372023.020509) can0 60B#2158536E801F6184
(1591372023.020510) can0 60B#5F5F23CC80200192
(1591372023.021609) can0 60C#0584A33A0220E8
(1591372023.021609) can0 60C#228CA33A0220E8
(1591372023.021609) can0 60C#21AD717D0220C8
(1591372023.021610) can0 60C#5F84A33A0220E8
(1591372023.021610) can0 60D#057DAFA170800A0C
(1591372023.022743) can0 60D#227CEFA170800A0C
(1591372023.022743) can0 60D#217AAFA170800A0C
(1591372023.022744) can0 60D#5F7D0FA170800A0C
(1591372023.036576) can0 301#8002000000000000
(1591372023.037589) can0 300#0000
(1591372023.086627) can0 301#8002000000000000
(1591372023.087624) can0 300#0000
(1591372023.094631) can0 60A#04C37110
(1591372023.095646) can0 60B#05540C0980208186
(1591372023.095646) can0 60B#225863CB801FE18B
(1591372023.095647) can0 60B#2158536E801F6184
(1591372023.095648) can0 60B#5F5F23CC80200192
(1591372023.096658) can0 60C#0584A33A0220E8
(1591372023.096659) can0 60C#228CA33A0220E8
(1591372023.096660) can0 60C#21B5B17D0220CC
(1591372023.096661) can0 60C#5F84A33A0220E8
(1591372023.096661) can0 60D#057D6FA170800A0C
(1591372023.097682) can0 60D#227D0FA170800A0C
(1591372023.097683) can0 60D#217AAFA170800A0C
(1591372023.097684) can0 60D#5F7D2FA170800A0C
(1591372023.136770) can0 301#8004000000000000
(1591372023.137781) can0 300#0000
(1591372023.164365) can0 60A#04C37310
(1591372023.165328) can0 60B#05540C0980208186
(1591372023.165329) can0 60B#0857F3BC7FE06181
(1591372023.165330) can0 60B#2158536D801F6186
(1591372023.165330) can0 60B#5F5F23CC80200192
(1591372023.166323) can0 60C#0584A33A0220E8
(1591372023.166334) can0 60C#08A56D8C8220C8
(1591372023.166335) can0 60C#21AD6F6C0220C8
(1591372023.166336) can0 60C#5F84A33A0220E8
(1591372023.167353) can0 60D#057D2FA170800A0C
(1591372023.167354) can0 60D#0874CFA170800A0C
(1591372023.167355) can0 60D#217AEFA170800A0C
(1591372023.167356) can0 60D#5F7D0FA170800A0C
(1591372023.186501) can0 301#8002000000000000
(1591372023.187516) can0 300#0000
(1591372023.236585) can0 301#8005000000000000
(1591372023.237583) can0 300#0000
(1591372023.239433) can0 60A#04C37510
(1591372023.240526) can0 60B#05540C0880206185
(1591372023.240527) can0 60B#0857F3BC7FE06181
(1591372023.240528) can0 60B#2158636B801F2188
(1591372023.240528) can0 60B#5F5F23CC80200192
(1591372023.241591) can0 60C#0584A33A0220E8
(1591372023.241592) can0 60C#08A56D8C8220CC
(1591372023.241593) can0 60C#21A52D6B8220C8
(1591372023.241594) can0 60C#5F84A33A0220E8
(1591372023.242610) can0 60D#057D4FA170800A0C
(1591372023.242611) can0 60D#0874CFA170800A0C
(1591372023.242612) can0 60D#217A2FA170800A0C
(1591372023.242612) can0 60D#5F7D0FA170800A0C
(1591372023.286842) can0 301#8003000000000000
(1591372023.287745) can0 300#0000
(1591372023.309690) can0 60A#04C37710
(1591372023.310681) can0 60B#05540C0880204184
(1591372023.310682) can0 60B#0857F3BC7FE06181
(1591372023.310683) can0 60B#21586B6A801F2189
(1591372023.310683) can0 60B#5F5F23CC80200192
(1591372023.311683) can0 60C#0584A33A0220E8
(1591372023.311683) can0 60C#08A56F8C8220CC
(1591372023.311684) can0 60C#219D296B0220E8
(1591372023.311685) can0 60C#5F84A33A0220E8
(1591372023.312741) can0 60D#057D4FA170800A0D
(1591372023.312742) can0 60D#0874CFA170800A0C
(1591372023.312743) can0 60D#21788FA170800A0C
(1591372023.312744) can0 60D#5F7CEFA170800A0C
(1591372023.336722) can0 301#8002000000000000
(1591372023.337708) can0 300#0000
(1591372023.364565) can0 201#401F400010340000
(1591372023.365598) can0 700#041E0100
(1591372023.379525) can0 60A#04C37910
(1591372023.380564) can0 60B#05540C0780204184
(1591372023.380565) can0 60B#0857F3BD7FE06181
(1591372023.380565) can0 60B#2158736A801F4189
(1591372023.380567) can0 60B#5F5F23CC80200192
(1591372023.381566) can0 60C#0584A33A0220E8
(1591372023.381567) can0 60C#08ADAF8C8220CC
(1591372023.381567) can0 60C#219D276A8220E8
(1591372023.381568) can0 60C#5F84A33A0220E8
(1591372023.382716) can0 60D#057D2FA170800A0C
(1591372023.382716) can0 60D#0874CFA170800A0C
(1591372023.382717) can0 60D#2176CFA170800A0C
(1591372023.382718) can0 60D#5F7D0FA170800A0C
(1591372023.386650) can0 301#8003000000000000
(1591372023.387500) can0 300#0000
(1591372023.436740) can0 301#8004000000000000
(1591372023.437652) can0 300#0000
(1591372023.454431) can0 60A#04C37B10
(1591372023.455417) can0 60B#05540C0780202184
(1591372023.455418) can0 60B#0857EBBD7FA06181
(1591372023.455419) can0 60B#21587B6B801F818A
(1591372023.455421) can0 60B#5F5F23CC80200192
(1591372023.456436) can0 60C#0584A33A0220E8
(1591372023.456438) can0 60C#08ADB18C8220AC
(1591372023.456438) can0 60C#219D255A8220E8
(1591372023.456439) can0 60C#5F84A33A0220E8
(1591372023.457456) can0 60D#057D4FA170800A0D
(1591372023.457457) can0 60D#0874CFA170800A0C
(1591372023.457458) can0 60D#2175AFA170800A0C
(1591372023.457459) can0 60D#5F7CEFA170800A0C
(1591372023.486633) can0 301#7FFE000000000000
(1591372023.487656) can0 300#0000
(1591372023.524379) can0 60A#04C37D10
(1591372023.525428) can0 60B#05540C0780202186
(1591372023.525430) can0 60B#0857EBBD7FA06181
(1591372023.525430) can0 60B#2158836B801F818A
(1591372023.525431) can0 60B#5F5F23CC80200192
(1591372023.526425) can0 60C#0584A33A0220E8
(1591372023.526427) can0 60C#08ADB18C8220AC
(1591372023.526427) can0 60C#2195255A8220E8
(1591372023.526429) can0 60C#5F84A33A0220E8
(1591372023.527520) can0 60D#057D6FA170800A0D
(1591372023.527521) can0 60D#0874CFA170800A0C
(1591372023.527522) can0 60D#21758FA170800A0C
(1591372023.527523) can0 60D#5F7D0FA170800A0C
(1591372023.536649) can0 301#8002000000000000
(1591372023.537673) can0 300#0000
(1591372023.586628) can0 301#8000000000000000
(1591372023.587556) can0 300#0000
(1591372023.599684) can0 60A#04C37F10
(1591372023.600715) can0 60B#05540C0680200186
(1591372023.600716) can0 60B#0857EBBE7FA06181
(1591372023.600716) can0 60B#21587B6A801F818A
(1591372023.600716) can0 60B#5F5F23CC80200192
(1591372023.601533) can0 60C#0584A33A0220E8
(1591372023.601534) can0 60C#08B5F18C8220AC
(1591372023.601534) can0 60C#2195255A8220E8
(1591372023.601534) can0 60C#5F84A33A0220E8
(1591372023.602548) can0 60D#057D6FA170800A0D
(1591372023.602549) can0 60D#0874CFA170800A0C
(1591372023.602549) can0 60D#21764FA170800A0C
(1591372023.602550) can0 60D#5F7D0FA170800A0C
(1591372023.636679) can0 301#8005000000000000
(1591372023.637670) can0 300#0000
(1591372023.669358) can0 60A#04C38110
(1591372023.670377) can0 60B#05540C0680200186
(1591372023.670378) can0 60B#0857EBBE7FA06181
(1591372023.671490) can0 60B#21587B69801F6189
(1591372023.671491) can0 60B#5F5F23CC80200192
(1591372023.671491) can0 60C#0584A33A0220CC
(1591372023.671492) can0 60C#08B5F18C8220AC
(1591372023.671493) can0 60C#2194E55A8220E8
(1591372023.672399) can0 60C#5F84A33A0220E8
(1591372023.672400) can0 60D#057D6FA170800A0D
(1591372023.672400) can0 60D#0874CFA170800A0C
(1591372023.672402) can0 60D#21772FA170800A0C
(1591372023.673374) can0 60D#5F7CEFA170800A0C
(1591372023.686591) can0 301#7FFF000000000000
(1591372023.687530) can0 300#0000
(1591372023.736658) can0 301#8000000000000000
(1591372023.737669) can0 300#0000
(1591372023.739437) can0 60A#04C38310
(1591372023.740439) can0 60B#05540C0680200186
(1591372023.740440) can0 60B#0857F3BF7FE08184
(1591372023.741462) can0 60B#21587B69801F6189
(1591372023.741464) can0 60B#5F5F23CC80200192
(1591372023.741465) can0 60C#0584A53A8220CC
(1591372023.741465) can0 60C#08B5F17C8220A8
(1591372023.741466) can0 60C#2195255A8220CC
(1591372023.742462) can0 60C#5F84A33A0220E8
(1591372023.742464) can0 60D#057D6FA170800A0D
(1591372023.742465) can0 60D#0877CFA170800A0C
(1591372023.742466) can0 60D#21772FA170800A0C
(1591372023.743481) can0 60D#5F7CEFA170800A0C
(1591372023.786500) can0 301#8002000000000000
(1591372023.787513) can0 300#0000
(1591372023.814298) can0 60A#04C38510
(1591372023.815526) can0 60B#05540C0680200186
(1591372023.815526) can0 60B#0857F3BF7FA08184
(1591372023.816275) can0 60B#21587B69801F818A
(1591372023.816275) can0 60B#5F5F23CC80200192
(1591372023.816275) can0 60C#0584A53A0220E8
(1591372023.816275) can0 60C#08BDF17C8220AC
(1591372023.816279) can0 60C#2195255A8220E8
(1591372023.817585) can0 60C#5F84A33A0220E8
(1591372023.817585) can0 60D#057D4FA170800A0C
(1591372023.817586) can0 60D#0877CFA170800A0C
(1591372023.817586) can0 60D#2178EFA170800A0C
(1591372023.818410) can0 60D#5F7CEFA170800A0C
(1591372023.836854) can0 301#8004000000000000
(1591372023.837793) can0 300#0000
(1591372023.884495) can0 60A#03C38710
(1591372023.885499) can0 60B#0554040680200186
(1591372023.885499) can0 60B#21587B68801F618A
(1591372023.885500) can0 60B#5F5F23CC80200193
(1591372023.886624) can0 60C#0584A33A0220E8
(1591372023.886625) can0 60C#2195255A8220E8
(1591372023.886626) can0 60C#5F84A33A0220E8
(1591372023.886627) can0 301#8002000000000000
(1591372023.886627) can0 300#0000
(1591372023.887520) can0 60D#057D4FA170800A0C
(1591372023.887521) can0 60D#2179EFA170800A0C
(1591372023.887521) can0 60D#5F7CEFA170800A0C
(1591372023.936692) can0 301#8001000000000000
(1591372023.937678) can0 300#0000
(1591372023.959538) can0 60A#03C38910
(1591372023.960536) can0 60B#05540C0780200186
(1591372023.960537) can0 60B#21587B68801F618A
(1591372023.960538) can0 60B#5F5F23CC80200192
(1591372023.961575) can0 60C#0584A33A0220E8
(1591372023.961577) can0 60C#2194E55A8220E8
(1591372023.961577) can0 60C#5F84A33A0220E8
(1591372023.961578) can0 60D#057D4FA170800A0C
(1591372023.962574) can0 60D#217ACFA170800A0C
(1591372023.962576) can0 60D#5F7D0FA170800A0C
(1591372023.986672) can0 301#8002000000000000
(1591372023.987627) can0 300#0000
(1591372024.029515) can0 60A#03C38B10
(1591372024.030609) can0 60B#05540C0880202185
(1591372024.030609) can0 60B#21587B68801F818A
(1591372024.031623) can0 60B#5F5F23CC80200192
(1591372024.031624) can0 60C#0584A33A0220E8
(1591372024.031624) can0 60C#2194E54A0220E8
(1591372024.031624) can0 60C#5F84A33A0220E8
(1591372024.032621) can0 60D#057D2FA170800A0C
(1591372024.032622) can0 60D#217BAFA170800A0C
(1591372024.032622) can0 60D#5F7CEFA170800A0C
(1591372024.036517) can0 301#8005000000000000
(1591372024.037540) can0 300#0000
(1591372024.086741) can0 301#7FFF000000000000
(1591372024.087747) can0 300#0000
(1591372024.099862) can0 60A#04C38D10
(1591372024.100881) can0 60B#05540C0780202186
(1591372024.100882) can0 60B#085813C27FE0A187
(1591372024.101863) can0 60B#21587B68801F818A
(1591372024.101864) can0 60B#5F5F23CC80200192
(1591372024.101865) can0 60C#0584A33A0220E8
(1591372024.101866) can0 60C#08B5B16C8220C8
(1591372024.101866) can0 60C#2195254A8220C8
(1591372024.102866) can0 60C#5F84A33A0220E8
(1591372024.102869) can0 60D#057D0FA170800A0C
(1591372024.102870) can0 60D#085CAFA170800A0C
(1591372024.102871) can0 60D#217BCFA170800A0C
(1591372024.103924) can0 60D#5F7CEFA170800A0C
(1591372024.136721) can0 301#8004000000000000
(1591372024.137717) can0 300#0000
(1591372024.174315) can0 60A#04C38F10
(1591372024.175310) can0 60B#05540C0880202186
(1591372024.175311) can0 60B#085823C37FE0A188
(1591372024.176343) can0 60B#21587367801F8189
(1591372024.176344) can0 60B#5F5F23CC80200192
(1591372024.176345) can0 60C#0584A33A0220E8
(1591372024.176346) can0 60C#08B5AF6C0220C8
(1591372024.176347) can0 60C#2194E54A0220E8
(1591372024.177343) can0 60C#5F84A33A0220E8
(1591372024.177345) can0 60D#057D0FA170800A0C
(1591372024.177358) can0 60D#084E6FA170800A0C
(1591372024.177358) can0 60D#217C6FA170800A0C
(1591372024.178361) can0 60D#5F7CEFA170800A0C
(1591372024.186577) can0 301#8002000000000000
(1591372024.187569) can0 300#0000
(1591372024.236608) can0 301#8006000000000000
(1591372024.237563) can0 300#0000
(1591372024.244319) can0 60A#04C39110
(1591372024.245382) can0 60B#0554040780200184
(1591372024.246409) can0 60B#08585BC980212188
(1591372024.246410) can0 60B#21587367801F8189
(1591372024.246411) can0 60B#5F5F23CC80200192
(1591372024.246412) can0 60C#0584A33A0220E8
(1591372024.246412) can0 60C#08AD6D5C0220E8
(1591372024.247405) can0 60C#2194E54A0220E8
(1591372024.247406) can0 60C#5F84A33A0220E8
(1591372024.247407) can0 60D#057CEFA170800A0C
(1591372024.247408) can0 60D#081FEFA170800A0C
(1591372024.248443) can0 60D#217CCFA170800A0C
(1591372024.248444) can0 60D#5F7CEFA170800A0C
(1591372024.286449) can0 301#8003000000000000
(1591372024.287463) can0 300#0000
(1591372024.319588) can0 60A#04C39310
(1591372024.320583) can0 60B#0554040680200185
(1591372024.320584) can0 60B#085873CA80212189
(1591372024.321471) can0 60B#21587367801F8189
(1591372024.321472) can0 60B#5F5F23CC80200192
(1591372024.321473) can0 60C#0584A33A0220E8
(1591372024.321474) can0 60C#08A5295B8220E8
(1591372024.322498) can0 60C#2195254A8220CC
(1591372024.322499) can0 60C#5F84A33A0220E8
(1591372024.322500) can0 60D#057CEFA170800A0C
(1591372024.322501) can0 60D#08172FA170800A0C
(1591372024.322502) can0 60D#217CCFA170800A0C
(1591372024.323627) can0 60D#5F7CEFA170800A0C
(1591372024.336694) can0 301#8002000000000000
(1591372024.337637) can0 300#0000
(1591372024.365709) can0 201#401F400010340000
(1591372024.366727) can0 700#041E0100
(1591372024.386605) can0 301#8003000000000000
(1591372024.387620) can0 300#0000
(1591372024.389429) can0 60A#04C39510
(1591372024.390603) can0 60B#0554040680200185
(1591372024.390604) can0 60B#085873CB7FA12189
(1591372024.391518) can0 60B#21587367801FA189
(1591372024.391519) can0 60B#5F5F23CC80200192
(1591372024.391519) can0 60C#0584A53A0220CC
(1591372024.391520) can0 60C#08A52B5C0220CC
(1591372024.391521) can0 60C#2194E54A0220E8
(1591372024.392523) can0 60C#5F84A33A0220E8
(1591372024.392524) can0 60D#057CEFA170800A0C
(1591372024.392525) can0 60D#08172FA170800A0C
(1591372024.392525) can0 60D#217D6FA170800A0C
(1591372024.393526) can0 60D#5F7D0FA170800A0C
(1591372024.436640) can0 301#8002000000000000
(1591372024.437697) can0 300#0000
(1591372024.460620) can0 60A#04C39710
(1591372024.461614) can0 60B#0554040680200185
(1591372024.461615) can0 60B#085863C98020E188
(1591372024.461616) can0 60B#21586B67801FA18A
(1591372024.461617) can0 60B#5F5F23CC80200192
(1591372024.462641) can0 60C#0584A53A0220E8
(1591372024.462642) can0 60C#089D274C0220E8
(1591372024.462643) can0 60C#2194E34A0220E8
(1591372024.462644) can0 60C#5F84A33A0220E8
(1591372024.462645) can0 60D#057D0FA170800A0C
(1591372024.463655) can0 60D#08478FA170800A0C
(1591372024.463656) can0 60D#217DEFA170800A0C
(1591372024.463656) can0 60D#5F7D2FA170800A0C
(1591372024.486680) can0 301#8002000000000000
(1591372024.487675) can0 300#0000
(1591372024.535563) can0 60A#04C39910
(1591372024.536579) can0 60B#05540C0680200184
(1591372024.536589) can0 60B#08585BCB80210188
(1591372024.536590) can0 60B#21586B67801FA18A
(1591372024.536591) can0 60B#5F5F23CC80200192
(1591372024.537557) can0 60C#058CA53A0220E8
(1591372024.537558) can0 301#8002000000000000
(1591372024.537559) can0 300#0000
(1591372024.537559) can0 60C#089CE54C0220E8
(1591372024.537560) can0 60C#2194E54A0220E8
(1591372024.538569) can0 60C#5F84A33A0220E8
(1591372024.538570) can0 60D#057D6FA170800A0C
(1591372024.538570) can0 60D#085B4FA170800A0C
(1591372024.538571) can0 60D#217E0FA170800A0C
(1591372024.539543) can0 60D#5F7D0FA170800A0C
(1591372024.586459) can0 301#8003000000000000
(1591372024.587505) can0 300#0000
(1591372024.605786) can0 60A#03C39B10
(1591372024.606792) can0 60B#05540C0680200184
(1591372024.606793) can0 60B#085853CD80212187
(1591372024.606793) can0 60B#5F5F23CC80200192
(1591372024.606794) can0 60C#058CA53A0220CC
(1591372024.607788) can0 60C#0894E54B8220E8
(1591372024.607789) can0 60C#5F84A33A0220E8
(1591372024.607790) can0 60D#057D6FA170800A0C
(1591372024.607790) can0 60D#08760FA170800A0C
(1591372024.608805) can0 60D#5F7D0FA170800A0C
(1591372024.636782) can0 301#8005000000000000
(1591372024.637755) can0 300#0000
(1591372024.680602) can0 60A#03C39D10
(1591372024.681472) can0 60B#05540C0680200184
(1591372024.681473) can0 60B#085853CD80212188
(1591372024.681474) can0 60B#5F5F23CC80200192
(1591372024.681475) can0 60C#058CA53A0220E8
(1591372024.682464) can0 60C#0894E54B8220E8
(1591372024.682465) can0 60C#5F84A33A0220E8
(1591372024.682466) can0 60D#057D6FA170800A0C
(1591372024.682467) can0 60D#087A6FA170800A0C
(1591372024.683435) can0 60D#5F7CEFA170800A0C
(1591372024.686409) can0 301#8003000000000000
(1591372024.687544) can0 300#0000
(1591372024.736641) can0 301#8006000000000000
(1591372024.737577) can0 300#0000
(1591372024.750508) can0 60A#03C39F10
(1591372024.751458) can0 60B#05540C05801FE184
(1591372024.751460) can0 60B#085853CE80212185
(1591372024.751461) can0 60B#5F5F23CC80200192
(1591372024.751463) can0 60C#058CA33A0220E8
(1591372024.752543) can0 60C#0894E74B0220C8
(1591372024.752543) can0 60C#5F84A33A0220E8
(1591372024.752545) can0 60D#057CCFA170800A0C
(1591372024.752546) can0 60D#087ACFA170800A0C
(1591372024.753542) can0 60D#5F7CEFA170800A0C
(1591372024.786676) can0 301#8001000000000000
(1591372024.787734) can0 300#0000
(1591372024.820359) can0 60A#03C3A110
(1591372024.821407) can0 60B#05540C04801FC184
(1591372024.821407) can0 60B#085853CD8020E186
(1591372024.821407) can0 60B#5F5F23CC80200192
(1591372024.821408) can0 60C#058CA33A0220E8
(1591372024.822431) can0 60C#0894E54B0220E8
(1591372024.822432) can0 60C#5F84A33A0220E8
(1591372024.822432) can0 60D#057C8FA170800A0C
(1591372024.822433) can0 60D#087CEFA170800A0C
(1591372024.823427) can0 60D#5F7CEFA170800A0C
(1591372024.836594) can0 301#8002000000000000
(1591372024.837605) can0 300#0000
(1591372024.886763) can0 301#8002000000000000
(1591372024.887779) can0 300#0000
(1591372024.895595) can0 60A#03C3A310
(1591372024.896612) can0 60B#05540C03801FA185
(1591372024.896612) can0 60B#08585BCE8020E187
(1591372024.896612) can0 60B#5F5F23CC80200192
(1591372024.896613) can0 60C#058CA33A0220E8
(1591372024.897655) can0 60C#0894A34A8220E8
(1591372024.897658) can0 60C#5F84A33A0220E8
(1591372024.897658) can0 60D#057C8FA170800A0C
(1591372024.897658) can0 60D#087D4FA170800A0C
(1591372024.898677) can0 60D#5F7D0FA170800A0C
(1591372024.937085) can0 301#8001000000000000
(1591372024.937930) can0 300#0000
(1591372024.965771) can0 60A#03C3A510
(1591372024.966824) can0 60B#05540C02801FA184
(1591372024.966825) can0 60B#085853CE8020E187
(1591372024.966826) can0 60B#5F5F23CC80200192
(1591372024.966828) can0 60C#058CA33A0220E8
(1591372024.967830) can0 60C#0894A34A0220E8
(1591372024.967831) can0 60C#5F84A33A0220E8
(1591372024.967832) can0 60D#057C8FA170800A0C
(1591372024.967833) can0 60D#087D0FA170800A0C
(1591372024.968801) can0 60D#5F7D0FA170800A0C
(1591372024.986612) can0 301#8003000000000000
(1591372024.987626) can0 300#0000
(1591372025.035485) can0 60A#03C3A710
(1591372025.036539) can0 60B#05540C02801FA183
(1591372025.036540) can0 60B#085853CD8020A188
(1591372025.036541) can0 60B#5F5F23CC80200192
(1591372025.036542) can0 60C#058CA33A0220E8
(1591372025.037561) can0 301#8002000000000000
(1591372025.037562) can0 300#0000
(1591372025.037563) can0 60C#0894A34A0220E8
(1591372025.037564) can0 60C#5F84A33A0220E8
(1591372025.037564) can0 60D#057CAFA170800A0C
(1591372025.038558) can0 60D#087D2FA170800A0C
(1591372025.038559) can0 60D#5F7D0FA170800A0C
(1591372025.086817) can0 301#7FFE000000000000
(1591372025.087819) can0 300#0000
(1591372025.110544) can0 60A#03C3A910
